(0000000000000.003115) can0 00000601#2305180181020080
(0000000000000.013126) can0 00000601#2305180181020080
(0000000000000.023110) can0 00000601#2305180181020080
(0000000000000.033136) can0 00000601#2305180181020080
(0000000000000.043119) can0 00000601#2305180181020080
(0000000000000.053273) can0 00000601#2305180181020080
(0000000000000.063299) can0 00000601#2305180181020080
(0000000000000.073283) can0 00000601#2305180181020080
(0000000000000.074221) can0 00000301#7E008813
(0000000000000.074520) can0 18FFD1F7#0B240B1A0B0C0000
(0000000000000.074776) can0 18FFD0F7#0097009700970000
(0000000000000.075075) can0 18FFC9F7#125C025800000000
(0000000000000.075373) can0 1CFFC6F7#FA2F000000300026
(0000000000000.075629) can0 1CFFC7F7#0320032000AC0000
(0000000000000.075928) can0 0CFFC2F7#1342009702580000
(0000000000000.076227) can0 0CFFC8F7#0000000001000000
(0000000000000.076483) can0 18FFCCF7#0161016401690000
(0000000000000.076781) can0 18FFCBF7#010400F604600000
(0000000000000.077080) can0 1CFFC5F7#01F5014A095605DF
(0000000000000.077336) can0 0CFFC3F7#1255411540D40041
(0000000000000.077677) can0 18FFC4F7#0000009600000000
(0000000000000.077933) can0 0CFFCAF7#0001F47B00000004
(0000000000000.083223) can0 00000601#2305180181020080
(0000000000000.093207) can0 00000601#2305180181020080
(0000000000000.093936) can0 00FFAB41#0100000001000001
(0000000000000.093940) can0 0CFFAE41#125C025800000000
(0000000000000.093941) can0 0CFFAC41#0000009600000000
(0000000000000.103105) can0 00000601#2305180181020080
(0000000000000.113131) can0 00000601#2305180181020080
(0000000000000.123114) can0 00000601#2305180181020080
(0000000000000.133140) can0 00000601#2305180181020080
(0000000000000.143124) can0 00000601#2305180181020080
(0000000000000.153278) can0 00000601#2305180181020080
(0000000000000.163304) can0 00000601#2305180181020080
(0000000000000.173287) can0 00000601#2305180181020080
(0000000000000.174226) can0 00000301#7E008813
(0000000000000.174482) can0 18FFD1F7#0B250B190B0C0000
(0000000000000.174780) can0 18FFD0F7#0097009700970000
(0000000000000.175079) can0 18FFC9F7#125C025800000000
(0000000000000.175335) can0 1CFFC6F7#FA2F000000300026
(0000000000000.175634) can0 1CFFC7F7#0320032000AC0000
(0000000000000.175932) can0 0CFFC2F7#1344009602580000
(0000000000000.176231) can0 0CFFC8F7#0000000001000000
(0000000000000.176487) can0 18FFCCF7#0161016401690000
(0000000000000.176786) can0 18FFCBF7#010400F604600000
(0000000000000.177042) can0 1CFFC5F7#01F5014A095605DF
(0000000000000.177340) can0 0CFFC3F7#1255411540D40041
(0000000000000.177639) can0 18FFC4F7#0000009600000000
(0000000000000.177938) can0 0CFFCAF7#0001F47A00000004
(0000000000000.183228) can0 00000601#2305180181020080
(0000000000000.193224) can0 00FFAB41#0100000001000001
(0000000000000.193254) can0 00000601#2305180181020080
(0000000000000.194228) can0 0CFFAE41#125C025800000000
(0000000000000.194229) can0 0CFFAC41#0000009600000000
(0000000000000.203109) can0 00000601#2305180181020080
(0000000000000.213135) can0 00000601#2305180181020080
(0000000000000.223119) can0 00000601#2305180181020080
(0000000000000.233102) can0 00000601#2305180181020080
(0000000000000.243128) can0 00000601#2305180181020080
(0000000000000.253282) can0 00000601#2305180181020080
(0000000000000.263266) can0 00000601#2305180181020080
(0000000000000.273292) can0 00000601#2305180181020080
(0000000000000.274230) can0 00000301#7E008813
(0000000000000.274529) can0 18FFD1F7#0B240B190B0B0000
(0000000000000.274785) can0 18FFD0F7#0097009700970000
(0000000000000.275083) can0 18FFC9F7#125C025800000000
(0000000000000.275339) can0 1CFFC6F7#FA31000000300026
(0000000000000.275638) can0 1CFFC7F7#0320032000AC0000
(0000000000000.275894) can0 0CFFC2F7#1344009602580000
(0000000000000.276235) can0 0CFFC8F7#0000000001000000
(0000000000000.276491) can0 18FFCCF7#0161016301690000
(0000000000000.276790) can0 18FFCBF7#010400F604600000
(0000000000000.277089) can0 1CFFC5F7#01F5014A095505DF
(0000000000000.277345) can0 0CFFC3F7#1255411540D40041
(0000000000000.277643) can0 18FFC4F7#0000009600000000
(0000000000000.277899) can0 0CFFCAF7#0001F47700000005
(0000000000000.283232) can0 00000601#2305180181020080
(0000000000000.293370) can0 00FFAB41#0100000001000001
(0000000000000.293400) can0 00000601#2305180181020080
(0000000000000.294344) can0 0CFFAE41#125C025800000000
(0000000000000.294346) can0 0CFFAC41#0000009600000000
(0000000000000.303114) can0 00000601#2305180181020080
(0000000000000.313097) can0 00000601#2305180181020080
(0000000000000.323123) can0 00000601#2305180181020080
(0000000000000.333106) can0 00000601#2305180181020080
(0000000000000.343133) can0 00000601#2305180181020080
(0000000000000.353287) can0 00000601#2305180181020080
(0000000000000.363270) can0 00000601#2305180181020080
(0000000000000.373296) can0 00000601#2305180181020080
(0000000000000.374192) can0 00000301#7E008813
(0000000000000.374491) can0 18FFD1F7#0B240B190B0B0000
(0000000000000.374789) can0 18FFD0F7#0097009700970000
(0000000000000.375045) can0 18FFC9F7#125C025800000000
(0000000000000.375344) can0 1CFFC6F7#FA31000000300026
(0000000000000.375643) can0 1CFFC7F7#0320032000AC0000
(0000000000000.375898) can0 0CFFC2F7#1344009602580000
(0000000000000.376197) can0 0CFFC8F7#0000000001000000
(0000000000000.376496) can0 18FFCCF7#0161016401690000
(0000000000000.376794) can0 18FFCBF7#010400F604600000
(0000000000000.377050) can0 1CFFC5F7#01F5014A095605DF
(0000000000000.377349) can0 0CFFC3F7#1255411540D40041
(0000000000000.377605) can0 18FFC4F7#0000009600000000
(0000000000000.377904) can0 0CFFCAF7#0001F47800000004
(0000000000000.383194) can0 00000601#2305180181020080
(0000000000000.393220) can0 00000601#2305180181020080
(0000000000000.393436) can0 00FFAB41#0100000001000001
(0000000000000.394454) can0 0CFFAE41#125C025800000000
(0000000000000.394456) can0 0CFFAC41#0000009600000000
(0000000000000.403118) can0 00000601#2305180181020080
(0000000000000.413101) can0 00000601#2305180181020080
(0000000000000.423128) can0 00000601#2305180181020080
(0000000000000.433111) can0 00000601#2305180181020080
(0000000000000.443094) can0 00000601#2305180181020080
(0000000000000.453291) can0 00000601#2305180181020080
(0000000000000.463274) can0 00000601#2305180181020080
(0000000000000.473258) can0 00000601#2305180181020080
(0000000000000.474196) can0 00000301#7E008813
(0000000000000.474495) can0 18FFD1F7#0B250B190B0C0000
(0000000000000.474794) can0 18FFD0F7#0097009700970000
(0000000000000.475050) can0 18FFC9F7#125C025800000000
(0000000000000.475348) can0 1CFFC6F7#FA2F000000300026
(0000000000000.475604) can0 1CFFC7F7#0320032000AD0000
(0000000000000.475903) can0 0CFFC2F7#1344009702580000
(0000000000000.476202) can0 0CFFC8F7#0000000001000000
(0000000000000.476458) can0 18FFCCF7#0161016401690000
(0000000000000.476756) can0 18FFCBF7#010400F604600000
(0000000000000.477097) can0 1CFFC5F7#01F5014A095605DF
(0000000000000.477353) can0 0CFFC3F7#1255411540D40041
(0000000000000.477609) can0 18FFC4F7#0000009600000000
(0000000000000.477908) can0 0CFFCAF7#0001F47300000004
(0000000000000.483198) can0 00000601#2305180181020080
(0000000000000.493224) can0 00000601#2305180181020080
(0000000000000.493704) can0 00FFAB41#0100000001000001
(0000000000000.493705) can0 0CFFAE41#125C025800000000
(0000000000000.493705) can0 0CFFAC41#0000009600000000
(0000000000000.503123) can0 00000601#2305180181020080
(0000000000000.513106) can0 00000601#2305180181020080
(0000000000000.523089) can0 00000601#2305180181020080
(0000000000000.533115) can0 00000601#2305180181020080
(0000000000000.543099) can0 00000601#2305180181020080
(0000000000000.553253) can0 00000601#2305180181020080
(0000000000000.563279) can0 00000601#2305180181020080
(0000000000000.573262) can0 00000601#2305180181020080
(0000000000000.574201) can0 00000301#7E008813
(0000000000000.574499) can0 18FFD1F7#0B250B190B0C0000
(0000000000000.574755) can0 18FFD0F7#0097009700970000
(0000000000000.575054) can0 18FFC9F7#125C025800000000
(0000000000000.575310) can0 1CFFC6F7#FA31000000300026
(0000000000000.575609) can0 1CFFC7F7#0320032000AC0000
(0000000000000.575907) can0 0CFFC2F7#1346009602580000
(0000000000000.576206) can0 0CFFC8F7#0000000001000000
(0000000000000.576462) can0 18FFCCF7#0162016301690000
(0000000000000.576761) can0 18FFCBF7#010400F604600000
(0000000000000.577059) can0 1CFFC5F7#01F5014A095605DF
(0000000000000.577315) can0 0CFFC3F7#1255411540D40041
(0000000000000.577614) can0 18FFC4F7#0000009600000000
(0000000000000.577913) can0 0CFFCAF7#0001F47300000003
(0000000000000.583203) can0 00000601#2305180181020080
(0000000000000.593186) can0 00000601#2305180181020080
(0000000000000.593863) can0 00FFAB41#0100000001000001
(0000000000000.593865) can0 0CFFAE41#125C025800000000
(0000000000000.593865) can0 0CFFAC41#0000009600000000
(0000000000000.603127) can0 00000601#2305180181020080
(0000000000000.613110) can0 00000601#2305180181020080
(0000000000000.623094) can0 00000601#2305180181020080
(0000000000000.633120) can0 00000601#2305180181020080
(0000000000000.643188) can0 00000601#2305180181020080
(0000000000000.653257) can0 00000601#2305180181020080
(0000000000000.663283) can0 00000601#2305180181020080
(0000000000000.673267) can0 00000601#2305180181020080
(0000000000000.674205) can0 00000301#7E008813
(0000000000000.674461) can0 18FFD1F7#0B250B1A0B0D0000
(0000000000000.674760) can0 18FFD0F7#0097009700970000
(0000000000000.675058) can0 18FFC9F7#125C025800000000
(0000000000000.675314) can0 1CFFC6F7#FA2F000000300026
(0000000000000.675613) can0 1CFFC7F7#0320032000AC0000
(0000000000000.675912) can0 0CFFC2F7#1346009602580000
(0000000000000.676210) can0 0CFFC8F7#0000000001000000
(0000000000000.676466) can0 18FFCCF7#0161016401690000
(0000000000000.676765) can0 18FFCBF7#010400F604600000
(0000000000000.677064) can0 1CFFC5F7#01F5014A095605DF
(0000000000000.677362) can0 0CFFC3F7#1255411540D40041
(0000000000000.677618) can0 18FFC4F7#0000009600000000
(0000000000000.677917) can0 0CFFCAF7#0001F47400000004
(0000000000000.683207) can0 00000601#2305180181020080
(0000000000000.693531) can0 00FFAB41#0100000001000001
(0000000000000.693561) can0 00000601#2305180181020080
(0000000000000.694353) can0 0CFFAE41#125C025800000000
(0000000000000.694354) can0 0CFFAC41#0000009600000000
(0000000000000.703217) can0 00000601#2305180181020080
(0000000000000.713200) can0 00000601#2305180181020080
(0000000000000.723098) can0 00000601#2305180181020080
(0000000000000.733124) can0 00000601#2305180181020080
(0000000000000.743193) can0 00000601#2305180181020080
(0000000000000.753262) can0 00000601#2305180181020080
(0000000000000.763245) can0 00000601#2305180181020080
(0000000000000.773271) can0 00000601#2305180181020080
(0000000000000.774210) can0 00000301#7E008813
(0000000000000.774508) can0 18FFD1F7#0B250B1A0B0D0000
(0000000000000.774764) can0 18FFD0F7#0097009700970000
(0000000000000.775063) can0 18FFC9F7#125C025800000000
(0000000000000.775319) can0 1CFFC6F7#FA2F000000300026
(0000000000000.775618) can0 1CFFC7F7#0320032000AD0000
(0000000000000.775916) can0 0CFFC2F7#1346009702580000
(0000000000000.776172) can0 0CFFC8F7#0000000001000000
(0000000000000.776471) can0 18FFCCF7#0161016601690000
(0000000000000.776769) can0 18FFCBF7#010400F604610000
(0000000000000.777025) can0 1CFFC5F7#01F5014A095605DF
(0000000000000.777324) can0 0CFFC3F7#1255411540D40041
(0000000000000.777623) can0 18FFC4F7#0000009600000000
(0000000000000.777879) can0 0CFFCAF7#0001F47600000004
(0000000000000.783212) can0 00000601#2305180181020080
(0000000000000.793137) can0 00FFAB41#0100000001000001
(0000000000000.793195) can0 00000601#2305180181020080
(0000000000000.794025) can0 0CFFAE41#125C025800000000
(0000000000000.794026) can0 0CFFAC41#0000009600000000
(0000000000000.803093) can0 00000601#2305180181020080
(0000000000000.813204) can0 00000601#2305180181020080
(0000000000000.823103) can0 00000601#2305180181020080
(0000000000000.833214) can0 00000601#2305180181020080
(0000000000000.843197) can0 00000601#2305180181020080
(0000000000000.853266) can0 00000601#2305180181020080
(0000000000000.863249) can0 00000601#2305180181020080
(0000000000000.873275) can0 00000601#2305180181020080
(0000000000000.874171) can0 00000301#7E008813
(0000000000000.874470) can0 18FFD1F7#0B1E0B230B0E0000
(0000000000000.874769) can0 18FFD0F7#0097009700970000
(0000000000000.875025) can0 18FFC9F7#125C025800000000
(0000000000000.875323) can0 1CFFC6F7#FA31000000300026
(0000000000000.875622) can0 1CFFC7F7#0320032000AC0000
(0000000000000.875921) can0 0CFFC2F7#1347009602580000
(0000000000000.876177) can0 0CFFC8F7#0000000001000000
(0000000000000.876475) can0 18FFCCF7#0161016401690000
(0000000000000.876774) can0 18FFCBF7#010400F604600000
(0000000000000.877030) can0 1CFFC5F7#01F5014A095505DF
(0000000000000.877328) can0 0CFFC3F7#1255411540D40041
(0000000000000.877627) can0 18FFC4F7#0000009600000000
(0000000000000.877883) can0 0CFFCAF7#0001F47300000004
(0000000000000.883173) can0 00000601#2305180181020080
(0000000000000.893199) can0 00000601#2305180181020080
(0000000000000.893974) can0 00FFAB41#0100000001000001
(0000000000000.893975) can0 0CFFAE41#125C025800000000
(0000000000000.893975) can0 0CFFAC41#0000009600000000
(0000000000000.903183) can0 00000601#2305180181020080
(0000000000000.913209) can0 00000601#2305180181020080
(0000000000000.923107) can0 00000601#2305180181020080
(0000000000000.933176) can0 00000601#2305180181020080
(0000000000000.943202) can0 00000601#2305180181020080
(0000000000000.953270) can0 00000601#2305180181020080
(0000000000000.963254) can0 00000601#2305180181020080
(0000000000000.973280) can0 00000601#2305180181020080
(0000000000000.974176) can0 00000301#7E008813
(0000000000000.974474) can0 18FFD1F7#0B160B1E0B140000
(0000000000000.974773) can0 18FFD0F7#0097009700970000
(0000000000000.975029) can0 18FFC9F7#125C025800000000
(0000000000000.975328) can0 1CFFC6F7#FA2F000000300026
(0000000000000.975626) can0 1CFFC7F7#0320032000AD0000
(0000000000000.975882) can0 0CFFC2F7#1347009702580000
(0000000000000.976224) can0 0CFFC8F7#0000000001000000
(0000000000000.976480) can0 18FFCCF7#0161016501690000
(0000000000000.976736) can0 18FFCBF7#010400F604610000
(0000000000000.977034) can0 1CFFC5F7#01F5014A095605DF
(0000000000000.977333) can0 0CFFC3F7#1255411540D40041
(0000000000000.977589) can0 18FFC4F7#0000009600000000
(0000000000000.977888) can0 0CFFCAF7#0001F44D00000003
(0000000000000.983178) can0 00000601#2305180181020080
(0000000000000.993204) can0 00000601#2305180181020080
(0000000000000.993924) can0 00FFAB41#0100000001000001
(0000000000000.993925) can0 0CFFAE41#125C025800000000
(0000000000000.993926) can0 0CFFAC41#0000009600000000
(0000000000001.003187) can0 00000601#2305180181020080
(0000000000001.013171) can0 00000601#2305180181020080
(0000000000001.023111) can0 00000601#2305180181020080
(0000000000001.033180) can0 00000601#2305180181020080
(0000000000001.043206) can0 00000601#2305180181020080
(0000000000001.053259) can0 00000601#2305180181020080
(0000000000001.063242) can0 00000601#2305180181020080
(0000000000001.073226) can0 00000601#2305180181020080
(0000000000001.074164) can0 00000301#7E008813
(0000000000001.074463) can0 18FFD1F7#0B160B1D0B140000
(0000000000001.074719) can0 18FFD0F7#0097009700970000
(0000000000001.075017) can0 18FFC9F7#125C025800000000
(0000000000001.075316) can0 1CFFC6F7#FA2F000000300026
(0000000000001.075572) can0 1CFFC7F7#0320032000AD0000
(0000000000001.075871) can0 0CFFC2F7#1347009702580000
(0000000000001.076169) can0 0CFFC8F7#0000000001000000
(0000000000001.076425) can0 18FFCCF7#0161016501690000
(0000000000001.076724) can0 18FFCBF7#010400F604610000
(0000000000001.077023) can0 1CFFC5F7#01F5014A095605E0
(0000000000001.077279) can0 0CFFC3F7#1255411540D40041
(0000000000001.077577) can0 18FFC4F7#0000009600000000
(0000000000001.077876) can0 0CFFCAF7#0001F41D00000005
(0000000000001.083166) can0 00000601#2305180181020080
(0000000000001.093192) can0 00000601#2305180181020080
(0000000000001.093607) can0 00FFAB41#0100000001000001
(0000000000001.093608) can0 0CFFAE41#125C025800000000
(0000000000001.094617) can0 0CFFAC41#0000009600000000
(0000000000001.103090) can0 00000601#2305180181020080
(0000000000001.113074) can0 00000601#2305180181020080
(0000000000001.123057) can0 00000601#2305180181020080
(0000000000001.133083) can0 00000601#2305180181020080
(0000000000001.143152) can0 00000601#2305180181020080
(0000000000001.153221) can0 00000601#2305180181020080
(0000000000001.163247) can0 00000601#2305180181020080
(0000000000001.173230) can0 00000601#2305180181020080
(0000000000001.174169) can0 00000301#7E008813
(0000000000001.174467) can0 18FFD1F7#0B160B1E0B140000
(0000000000001.174766) can0 18FFD0F7#0097009700970000
(0000000000001.175022) can0 18FFC9F7#125C025800000000
(0000000000001.175321) can0 1CFFC6F7#FA2F000000300026
(0000000000001.175577) can0 1CFFC7F7#0320032000AD0000
(0000000000001.175875) can0 0CFFC2F7#1348009702580000
(0000000000001.176174) can0 0CFFC8F7#0000000001000000
(0000000000001.176472) can0 18FFCCF7#0162016301690000
(0000000000001.176728) can0 18FFCBF7#010500F604610000
(0000000000001.177027) can0 1CFFC5F7#01F5014A095505DF
(0000000000001.177326) can0 0CFFC3F7#1255411540D40041
(0000000000001.177582) can0 18FFC4F7#0000009600000000
(0000000000001.177880) can0 0CFFCAF7#0001F3F600000004
(0000000000001.183171) can0 00000601#2305180181020080
(0000000000001.193154) can0 00000601#2305180181020080
(0000000000001.193601) can0 00FFAB41#0100000001000001
(0000000000001.193602) can0 0CFFAE41#125C025800000000
(0000000000001.194595) can0 0CFFAC41#0000009600000000
(0000000000001.203052) can0 00000601#2305180181020080
(0000000000001.213078) can0 00000601#2305180181020080
(0000000000001.223062) can0 00000601#2305180181020080
(0000000000001.233088) can0 00000601#2305180181020080
(0000000000001.243156) can0 00000601#2305180181020080
(0000000000001.253225) can0 00000601#2305180181020080
(0000000000001.263251) can0 00000601#2305180181020080
(0000000000001.273234) can0 00000601#2305180181020080
(0000000000001.274173) can0 00000301#7E008813
(0000000000001.274472) can0 18FFD1F7#0B160B1D0B140000
(0000000000001.274728) can0 18FFD0F7#0097009700970000
(0000000000001.275026) can0 18FFC9F7#125C025800000000
(0000000000001.275325) can0 1CFFC6F7#FA2F000000300026
(0000000000001.275581) can0 1CFFC7F7#0320032000AD0000
(0000000000001.275880) can0 0CFFC2F7#134A009702580000
(0000000000001.276178) can0 0CFFC8F7#0000000001000000
(0000000000001.276434) can0 18FFCCF7#01620164016A0000
(0000000000001.276733) can0 18FFCBF7#010400F604610000
(0000000000001.276989) can0 1CFFC5F7#01F5014A095505DF
(0000000000001.277287) can0 0CFFC3F7#1255411540D40041
(0000000000001.277586) can0 18FFC4F7#0000009600000000
(0000000000001.277842) can0 0CFFCAF7#0001F3D100000005
(0000000000001.283175) can0 00000601#2305180181020080
(0000000000001.293158) can0 00000601#2305180181020080
(0000000000001.293884) can0 00FFAB41#0100000001000001
(0000000000001.293885) can0 0CFFAE41#125C025800000000
(0000000000001.293885) can0 0CFFAC41#0000009600000000
(0000000000001.303057) can0 00000601#2305180181020080
(0000000000001.313083) can0 00000601#2305180181020080
(0000000000001.323066) can0 00000601#2305180181020080
(0000000000001.333177) can0 00000601#2305180181020080
(0000000000001.343161) can0 00000601#2305180181020080
(0000000000001.353229) can0 00000601#2305180181020080
(0000000000001.363213) can0 00000601#2305180181020080
(0000000000001.373239) can0 00000601#2305180181020080
(0000000000001.374177) can0 00000301#7E008813
(0000000000001.374433) can0 18FFD1F7#0B160B1D0B140000
(0000000000001.374732) can0 18FFD0F7#0097009700970000
(0000000000001.374988) can0 18FFC9F7#125C025800000000
(0000000000001.375287) can0 1CFFC6F7#FA31000000300026
(0000000000001.375585) can0 1CFFC7F7#0320032000AD0000
(0000000000001.375841) can0 0CFFC2F7#1349009702580000
(0000000000001.376183) can0 0CFFC8F7#0000000001000000
(0000000000001.376439) can0 18FFCCF7#0162016401690000
(0000000000001.376737) can0 18FFCBF7#010400F604610000
(0000000000001.376993) can0 1CFFC5F7#01F5014A095605DF
(0000000000001.377335) can0 0CFFC3F7#1255411540D40041
(0000000000001.377591) can0 18FFC4F7#0000009600000000
(0000000000001.377847) can0 0CFFCAF7#0001F3B200000004
(0000000000001.383180) can0 00000601#2305180181020080
(0000000000001.393163) can0 00000601#2305180181020080
(0000000000001.393944) can0 00FFAB41#0100000001000001
(0000000000001.393945) can0 0CFFAE41#125C025800000000
(0000000000001.393945) can0 0CFFAC41#0000009600000000
(0000000000001.403061) can0 00000601#2305180181020080
(0000000000001.413044) can0 00000601#2305180181020080
(0000000000001.423070) can0 00000601#2305180181020080
(0000000000001.433054) can0 00000601#2305180181020080
(0000000000001.443165) can0 00000601#2305180181020080
(0000000000001.453234) can0 00000601#2305180181020080
(0000000000001.463217) can0 00000601#2305180181020080
(0000000000001.473243) can0 00000601#2305180181020080
(0000000000001.474139) can0 00000301#7E008813
(0000000000001.474438) can0 18FFD1F7#0B160B1E0B140000
(0000000000001.474736) can0 18FFD0F7#0097009700970000
(0000000000001.474992) can0 18FFC9F7#125C025800000000
(0000000000001.475291) can0 1CFFC6F7#FA31000000300026
(0000000000001.475590) can0 1CFFC7F7#0320032000AD0000
(0000000000001.475888) can0 0CFFC2F7#134B009702580000
(0000000000001.476144) can0 0CFFC8F7#0000000001000000
(0000000000001.476443) can0 18FFCCF7#0162016401690000
(0000000000001.476699) can0 18FFCBF7#010400F604610000
(0000000000001.476998) can0 1CFFC5F7#01F5014A095605DF
(0000000000001.477296) can0 0CFFC3F7#1255411540D40041
(0000000000001.477552) can0 18FFC4F7#0000009600000000
(0000000000001.477851) can0 0CFFCAF7#0001F39700000006
(0000000000001.483141) can0 00000601#2305180181020080
(0000000000001.493207) can0 00FFAB41#0100000001000001
(0000000000001.493237) can0 00000601#2305180181020080
(0000000000001.494110) can0 0CFFAE41#125C025800000000
(0000000000001.494111) can0 0CFFAC41#0000009600000000
(0000000000001.503065) can0 00000601#2305180181020080
(0000000000001.513049) can0 00000601#2305180181020080
(0000000000001.523075) can0 00000601#2305180181020080
(0000000000001.533058) can0 00000601#2305180181020080
(0000000000001.543170) can0 00000601#2305180181020080
(0000000000001.553238) can0 00000601#2305180181020080
(0000000000001.563222) can0 00000601#2305180181020080
(0000000000001.573205) can0 00000601#2305180181020080
(0000000000001.574144) can0 00000301#7E008813
(0000000000001.574442) can0 18FFD1F7#0B160B1D0B140000
(0000000000001.574698) can0 18FFD0F7#0097009700970000
(0000000000001.574997) can0 18FFC9F7#125C025800000000
(0000000000001.575296) can0 1CFFC6F7#FA31000000300026
(0000000000001.575552) can0 1CFFC7F7#0320032000AD0000
(0000000000001.575850) can0 0CFFC2F7#134A009702580000
(0000000000001.576149) can0 0CFFC8F7#0000000001000000
(0000000000001.576405) can0 18FFCCF7#0162016301690000
(0000000000001.576703) can0 18FFCBF7#010300F604610000
(0000000000001.577002) can0 1CFFC5F7#01F5014A095605E0
(0000000000001.577258) can0 0CFFC3F7#1255411540D40041
(0000000000001.577599) can0 18FFC4F7#0000009600000000
(0000000000001.577855) can0 0CFFCAF7#0001F37D00000005
(0000000000001.583146) can0 00000601#2305180181020080
(0000000000001.593172) can0 00000601#2305180181020080
(0000000000001.593962) can0 00FFAB41#0100000001000001
(0000000000001.593964) can0 0CFFAE41#125C025800000000
(0000000000001.593964) can0 0CFFAC41#0000009600000000
(0000000000001.603070) can0 00000601#2305180181020080
(0000000000001.613053) can0 00000601#2305180181020080
(0000000000001.623079) can0 00000601#2305180181020080
(0000000000001.633063) can0 00000601#2305180181020080
(0000000000001.643131) can0 00000601#2305180181020080
(0000000000001.653243) can0 00000601#2305180181020080
(0000000000001.663226) can0 00000601#2305180181020080
(0000000000001.673209) can0 00000601#2305180181020080
(0000000000001.674148) can0 00000301#7E008813
(0000000000001.674447) can0 18FFD1F7#0B1A0B1D0B160000
(0000000000001.674703) can0 18FFD0F7#0097009700970000
(0000000000001.675001) can0 18FFC9F7#125C025800000000
(0000000000001.675300) can0 1CFFC6F7#FA31000000300026
(0000000000001.675556) can0 1CFFC7F7#0320032000AD0000
(0000000000001.675855) can0 0CFFC2F7#134A009702580000
(0000000000001.676153) can0 0CFFC8F7#0000000001000000
(0000000000001.676409) can0 18FFCCF7#0162016401690000
(0000000000001.676708) can0 18FFCBF7#010400F604610000
(0000000000001.677006) can0 1CFFC5F7#01F5014A095605E0
(0000000000001.677262) can0 0CFFC3F7#1255411540D40041
(0000000000001.677561) can0 18FFC4F7#0000009600000000
(0000000000001.677860) can0 0CFFCAF7#0001F37200000005
(0000000000001.683150) can0 00000601#2305180181020080
(0000000000001.693129) can0 00FFAB41#0100000001000001
(0000000000001.693133) can0 00000601#2305180181020080
(0000000000001.694120) can0 0CFFAE41#125C025800000000
(0000000000001.694121) can0 0CFFAC41#0000009600000000
(0000000000001.703074) can0 00000601#2305180181020080
(0000000000001.713143) can0 00000601#2305180181020080
(0000000000001.723041) can0 00000601#2305180181020080
(0000000000001.733067) can0 00000601#2305180181020080
(0000000000001.743136) can0 00000601#2305180181020080
(0000000000001.753204) can0 00000601#2305180181020080
(0000000000001.763230) can0 00000601#2305180181020080
(0000000000001.773214) can0 00000601#2305180181020080
(0000000000001.774152) can0 00000301#7E008813
(0000000000001.774451) can0 18FFD1F7#0B190B1E0B160000
(0000000000001.774707) can0 18FFD0F7#0097009700970000
(0000000000001.775006) can0 18FFC9F7#125C025800000000
(0000000000001.775304) can0 1CFFC6F7#FA2F000000300026
(0000000000001.775560) can0 1CFFC7F7#0320032000AD0000
(0000000000001.775859) can0 0CFFC2F7#134B009702580000
(0000000000001.776158) can0 0CFFC8F7#0000000001000000
(0000000000001.776414) can0 18FFCCF7#0161016501690000
(0000000000001.776712) can0 18FFCBF7#010400F604610000
(0000000000001.777011) can0 1CFFC5F7#01F5014A095705DF
(0000000000001.777267) can0 0CFFC3F7#1255411540D40041
(0000000000001.777566) can0 18FFC4F7#0000009600000000
(0000000000001.777864) can0 0CFFCAF7#0001F36900000006
(0000000000001.783155) can0 00000601#2305180181020080
(0000000000001.793280) can0 00FFAB41#0100000001000001
(0000000000001.793310) can0 00000601#2305180181020080
(0000000000001.794240) can0 0CFFAE41#125C025800000000
(0000000000001.794241) can0 0CFFAC41#0000009600000000
(0000000000001.803164) can0 00000601#2305180181020080
(0000000000001.813147) can0 00000601#2305180181020080
(0000000000001.823131) can0 00000601#2305180181020080
(0000000000001.833071) can0 00000601#2305180181020080
(0000000000001.843140) can0 00000601#2305180181020080
(0000000000001.853209) can0 00000601#2305180181020080
(0000000000001.863235) can0 00000601#2305180181020080
(0000000000001.873218) can0 00000601#2305180181020080
(0000000000001.874157) can0 00000301#7E008813
(0000000000001.874413) can0 18FFD1F7#0B190B1E0B150000
(0000000000001.874711) can0 18FFD0F7#0097009700970000
(0000000000001.875010) can0 18FFC9F7#125C025800000000
(0000000000001.875266) can0 1CFFC6F7#FA31000000300026
(0000000000001.875565) can0 1CFFC7F7#0320032000AD0000
(0000000000001.875863) can0 0CFFC2F7#134B009702580000
(0000000000001.876162) can0 0CFFC8F7#0000000001000000
(0000000000001.876418) can0 18FFCCF7#0161016401690000
(0000000000001.876717) can0 18FFCBF7#010300F604610000
(0000000000001.876973) can0 1CFFC5F7#01F5014A095505DF
(0000000000001.877271) can0 0CFFC3F7#1255411540D40041
(0000000000001.877570) can0 18FFC4F7#0000009600000000
(0000000000001.877869) can0 0CFFCAF7#0001F35F00000005
(0000000000001.883159) can0 00000601#2305180181020080
(0000000000001.893142) can0 00000601#2305180181020080
(0000000000001.893639) can0 00FFAB41#0100000001000001
(0000000000001.893640) can0 0CFFAE41#125C025800000000
(0000000000001.894616) can0 0CFFAC41#0000009600000000
(0000000000001.903126) can0 00000601#2305180181020080
(0000000000001.913152) can0 00000601#2305180181020080
(0000000000001.923135) can0 00000601#2305180181020080
(0000000000001.933161) can0 00000601#2305180181020080
(0000000000001.943145) can0 00000601#2305180181020080
(0000000000001.953213) can0 00000601#2305180181020080
(0000000000001.963197) can0 00000601#2305180181020080
(0000000000001.973223) can0 00000601#2305180181020080
(0000000000001.974161) can0 00000301#7E008813
(0000000000001.974417) can0 18FFD1F7#0B1A0B1E0B160000
(0000000000001.974716) can0 18FFD0F7#0097009700970000
(0000000000001.975015) can0 18FFC9F7#125C025800000000
(0000000000001.975313) can0 1CFFC6F7#FA2D000000300026
(0000000000001.975569) can0 1CFFC7F7#0320032000AD0000
(0000000000001.975825) can0 0CFFC2F7#134C009702580000
(0000000000001.976166) can0 0CFFC8F7#0000000001000000
(0000000000001.976422) can0 18FFCCF7#0162016501690000
(0000000000001.976721) can0 18FFCBF7#010300F604610000
(0000000000001.976977) can0 1CFFC5F7#01F5014A095605DF
(0000000000001.977276) can0 0CFFC3F7#1255411540D40041
(0000000000001.977574) can0 18FFC4F7#0000009600000000
(0000000000001.977873) can0 0CFFCAF7#0001F35B00000006
(0000000000001.983163) can0 00000601#2305180181020080
(0000000000001.993344) can0 00FFAB41#0100000001000001
(0000000000001.993374) can0 00000601#2305180181020080
(0000000000001.994322) can0 0CFFAE41#125C025800000000
(0000000000001.994324) can0 0CFFAC41#0000009600000000
(0000000000002.003130) can0 00000601#2305180181020080
(0000000000002.013156) can0 00000601#2305180181020080
(0000000000002.023140) can0 00000601#2305180181020080
(0000000000002.033123) can0 00000601#2305180181020080
(0000000000002.043149) can0 00000601#2305180181020080
(0000000000002.053218) can0 00000601#2305180181020080
(0000000000002.063201) can0 00000601#2305180181020080
(0000000000002.073227) can0 00000601#2305180181020080
(0000000000002.074123) can0 00000301#7E008813
(0000000000002.074422) can0 18FFD1F7#0B190B1E0B160000
(0000000000002.074720) can0 18FFD0F7#0097009700970000
(0000000000002.075019) can0 18FFC9F7#125C025800000000
(0000000000002.075318) can0 1CFFC6F7#FA2D000000300026
(0000000000002.075574) can0 1CFFC7F7#0320032000AD0000
(0000000000002.075830) can0 0CFFC2F7#134D009702580000
(0000000000002.076128) can0 0CFFC8F7#0000000001000000
(0000000000002.076427) can0 18FFCCF7#0162016501690000
(0000000000002.076683) can0 18FFCBF7#010300F604610000
(0000000000002.076981) can0 1CFFC5F7#01F5014A095505E0
(0000000000002.077280) can0 0CFFC3F7#1255411540D40041
(0000000000002.077536) can0 18FFC4F7#0000009600000000
(0000000000002.077835) can0 0CFFCAF7#0001F35800000005
(0000000000002.083125) can0 00000601#2305180181020080
(0000000000002.093211) can0 00FFAB41#0100000001000001
(0000000000002.093241) can0 00000601#2305180181020080
(0000000000002.094202) can0 0CFFAE41#125C025800000000
(0000000000002.094204) can0 0CFFAC41#0000009600000000
(0000000000002.103165) can0 00000601#2305180181020080
(0000000000002.113148) can0 00000601#2305180181020080
(0000000000002.123174) can0 00000601#2305180181020080
(0000000000002.133157) can0 00000601#2305180181020080
(0000000000002.143183) can0 00000601#2305180181020080
(0000000000002.153252) can0 00000601#2305180181020080
(0000000000002.163235) can0 00000601#2305180181020080
(0000000000002.173219) can0 00000601#2305180181020080
(0000000000002.174157) can0 00000301#7E008813
(0000000000002.174456) can0 18FFD1F7#0B190B1E0B160000
(0000000000002.174755) can0 18FFD0F7#0097009700970000
(0000000000002.175011) can0 18FFC9F7#125C025800000000
(0000000000002.175309) can0 1CFFC6F7#FA2F000000300026
(0000000000002.175565) can0 1CFFC7F7#0320032000AD0000
(0000000000002.175864) can0 0CFFC2F7#134E009702580000
(0000000000002.176163) can0 0CFFC8F7#0000000001000000
(0000000000002.176461) can0 18FFCCF7#0161016301690000
(0000000000002.176717) can0 18FFCBF7#010400F604610000
(0000000000002.177016) can0 1CFFC5F7#01F5014A095605DF
(0000000000002.177315) can0 0CFFC3F7#1255411540D40041
(0000000000002.177571) can0 18FFC4F7#0000009600000000
(0000000000002.177869) can0 0CFFCAF7#0001F34F00000005
(0000000000002.183160) can0 00000601#2305180181020080
(0000000000002.193186) can0 00000601#2305180181020080
(0000000000002.193313) can0 00FFAB41#0100000001000001
(0000000000002.194310) can0 0CFFAE41#125C025800000000
(0000000000002.194311) can0 0CFFAC41#0000009600000000
(0000000000002.203169) can0 00000601#2305180181020080
(0000000000002.213152) can0 00000601#2305180181020080
(0000000000002.223178) can0 00000601#2305180181020080
(0000000000002.233076) can0 00000601#2305180181020080
(0000000000002.243145) can0 00000601#2305180181020080
(0000000000002.253214) can0 00000601#2305180181020080
(0000000000002.263240) can0 00000601#2305180181020080
(0000000000002.273223) can0 00000601#2305180181020080
(0000000000002.274162) can0 00000301#7E008813
(0000000000002.274460) can0 18FFD1F7#0B1A0B1D0B160000
(0000000000002.274759) can0 18FFD0F7#0097009700970000
(0000000000002.275015) can0 18FFC9F7#125C025800000000
(0000000000002.275314) can0 1CFFC6F7#FA2F000000300026
(0000000000002.275570) can0 1CFFC7F7#0320032000AD0000
(0000000000002.275868) can0 0CFFC2F7#134C009702580000
(0000000000002.276167) can0 0CFFC8F7#0000000001000000
(0000000000002.276423) can0 18FFCCF7#0162016501690000
(0000000000002.276722) can0 18FFCBF7#010400F604610000
(0000000000002.277020) can0 1CFFC5F7#01F5014A095505E0
(0000000000002.277276) can0 0CFFC3F7#1255411540D40041
(0000000000002.277575) can0 18FFC4F7#0000009600000000
(0000000000002.277874) can0 0CFFCAF7#0001F34A00000005
(0000000000002.283164) can0 00000601#2305180181020080
(0000000000002.293147) can0 00000601#2305180181020080
(0000000000002.293670) can0 00FFAB41#0100000001000001
(0000000000002.293671) can0 0CFFAE41#125C025800000000
(0000000000002.294670) can0 0CFFAC41#0000009600000000
(0000000000002.303173) can0 00000601#2305180181020080
(0000000000002.313157) can0 00000601#2305180181020080
(0000000000002.323140) can0 00000601#2305180181020080
(0000000000002.333166) can0 00000601#2305180181020080
(0000000000002.343150) can0 00000601#2305180181020080
(0000000000002.353218) can0 00000601#2305180181020080
(0000000000002.363244) can0 00000601#2305180181020080
(0000000000002.373228) can0 00000601#2305180181020080
(0000000000002.374166) can0 00000301#7E008813
(0000000000002.374465) can0 18FFD1F7#0B180B1E0B150000
(0000000000002.374721) can0 18FFD0F7#0097009700970000
(0000000000002.375020) can0 18FFC9F7#125C025800000000
(0000000000002.375318) can0 1CFFC6F7#FA31000000300026
(0000000000002.375574) can0 1CFFC7F7#0320032000AD0000
(0000000000002.375873) can0 0CFFC2F7#134D009702580000
(0000000000002.376171) can0 0CFFC8F7#0000000001000000
(0000000000002.376427) can0 18FFCCF7#0162016401690000
(0000000000002.376726) can0 18FFCBF7#010400F604610000
(0000000000002.377025) can0 1CFFC5F7#01F5014A095605DF
(0000000000002.377281) can0 0CFFC3F7#1255411540D40041
(0000000000002.377579) can0 18FFC4F7#0000009600000000
(0000000000002.377878) can0 0CFFCAF7#0001F34200000003
(0000000000002.383168) can0 00000601#2305180181020080
(0000000000002.393152) can0 00000601#2305180181020080
(0000000000002.393777) can0 00FFAB41#0100000001000001
(0000000000002.393779) can0 0CFFAE41#125C025800000000
(0000000000002.393780) can0 0CFFAC41#0000009600000000
(0000000000002.403135) can0 00000601#2305180181020080
(0000000000002.413161) can0 00000601#2305180181020080
(0000000000002.423145) can0 00000601#2305180181020080
(0000000000002.433171) can0 00000601#2305180181020080
(0000000000002.443154) can0 00000601#2305180181020080
(0000000000002.453223) can0 00000601#2305180181020080
(0000000000002.463206) can0 00000601#2305180181020080
(0000000000002.473232) can0 00000601#2305180181020080
(0000000000002.474171) can0 00000301#7E008813
(0000000000002.474427) can0 18FFD1F7#0B190B1D0B150000
(0000000000002.474768) can0 18FFD0F7#0097009700970000
(0000000000002.475024) can0 18FFC9F7#125C025800000000
(0000000000002.475280) can0 1CFFC6F7#FA2F000000300026
(0000000000002.475579) can0 1CFFC7F7#0320032000AD0000
(0000000000002.475877) can0 0CFFC2F7#134D009702580000
(0000000000002.476176) can0 0CFFC8F7#0000000001000000
(0000000000002.476432) can0 18FFCCF7#0161016501690000
(0000000000002.476731) can0 18FFCBF7#010300F604610000
(0000000000002.476986) can0 1CFFC5F7#01F5014A095505DF
(0000000000002.477285) can0 0CFFC3F7#1255411540D40041
(0000000000002.477584) can0 18FFC4F7#0000009600000000
(0000000000002.477840) can0 0CFFCAF7#0001F33900000003
(0000000000002.483173) can0 00000601#2305180181020080
(0000000000002.493197) can0 00FFAB41#0100000001000001
(0000000000002.493227) can0 00000601#2305180181020080
(0000000000002.494202) can0 0CFFAE41#125C025800000000
(0000000000002.494204) can0 0CFFAC41#0000009600000000
(0000000000002.503140) can0 00000601#2305180181020080
(0000000000002.513166) can0 00000601#2305180181020080
(0000000000002.523064) can0 00000601#2305180181020080
(0000000000002.533132) can0 00000601#2305180181020080
(0000000000002.543158) can0 00000601#2305180181020080
(0000000000002.553227) can0 00000601#2305180181020080
(0000000000002.563210) can0 00000601#2305180181020080
(0000000000002.573236) can0 00000601#2305180181020080
(0000000000002.574175) can0 00000301#7E008813
(0000000000002.574431) can0 18FFD1F7#0B190B1E0B150000
(0000000000002.574772) can0 18FFD0F7#0097009700970000
(0000000000002.574986) can0 18FFC9F7#125C025800000000
(0000000000002.575284) can0 1CFFC6F7#FA31000000300026
(0000000000002.575583) can0 1CFFC7F7#0320032000AD0000
(0000000000002.575839) can0 0CFFC2F7#134E009702580000
(0000000000002.576180) can0 0CFFC8F7#0000000001000000
(0000000000002.576436) can0 18FFCCF7#0162016501690000
(0000000000002.576692) can0 18FFCBF7#010300F604610000
(0000000000002.576991) can0 1CFFC5F7#01F5014A095605E0
(0000000000002.577290) can0 0CFFC3F7#1255411540D40041
(0000000000002.577588) can0 18FFC4F7#0000009600000000
(0000000000002.577887) can0 0CFFCAF7#0001F33600000002
(0000000000002.583135) can0 00000601#2305180181020080
(0000000000002.593161) can0 00000601#2305180181020080
(0000000000002.593338) can0 00FFAB41#0100000001000001
(0000000000002.594328) can0 0CFFAE41#125C025800000000
(0000000000002.594329) can0 0CFFAC41#0000009600000000
(0000000000002.603144) can0 00000601#2305180181020080
(0000000000002.613042) can0 00000601#2305180181020080
(0000000000002.623153) can0 00000601#2305180181020080
(0000000000002.633137) can0 00000601#2305180181020080
(0000000000002.643163) can0 00000601#2305180181020080
(0000000000002.653231) can0 00000601#2305180181020080
(0000000000002.663215) can0 00000601#2305180181020080
(0000000000002.673241) can0 00000601#2305180181020080
(0000000000002.674137) can0 00000301#7E008813
(0000000000002.674435) can0 18FFD1F7#0B190B1D0B150000
(0000000000002.674734) can0 18FFD0F7#0097009700970000
(0000000000002.675033) can0 18FFC9F7#125C025800000000
(0000000000002.675289) can0 1CFFC6F7#FA31000000300026
(0000000000002.675587) can0 1CFFC7F7#0320032000AD0000
(0000000000002.675843) can0 0CFFC2F7#134D009702580000
(0000000000002.676142) can0 0CFFC8F7#0000000001000000
(0000000000002.676441) can0 18FFCCF7#0162016501690000
(0000000000002.676697) can0 18FFCBF7#010300F604610000
(0000000000002.676995) can0 1CFFC5F7#01F5014A095605E0
(0000000000002.677294) can0 0CFFC3F7#1255411540D40041
(0000000000002.677593) can0 18FFC4F7#0000009600000000
(0000000000002.677891) can0 0CFFCAF7#0001F32F00000001
(0000000000002.683139) can0 00000601#2305180181020080
(0000000000002.693284) can0 00FFAB41#0100000001000001
(0000000000002.693314) can0 00000601#2305180181020080
(0000000000002.694266) can0 0CFFAE41#125C025800000000
(0000000000002.694268) can0 0CFFAC41#0000009600000000
(0000000000002.703148) can0 00000601#2305180181020080
(0000000000002.713132) can0 00000601#2305180181020080
(0000000000002.723158) can0 00000601#2305180181020080
(0000000000002.733141) can0 00000601#2305180181020080
(0000000000002.743167) can0 00000601#2305180181020080
(0000000000002.753236) can0 00000601#2305180181020080
(0000000000002.763219) can0 00000601#2305180181020080
(0000000000002.773203) can0 00000601#2305180181020080
(0000000000002.774141) can0 00000301#7E008813
(0000000000002.774440) can0 18FFD1F7#0B190B1D0B140000
(0000000000002.774739) can0 18FFD0F7#0097009700970000
(0000000000002.774995) can0 18FFC9F7#125C025800000000
(0000000000002.775293) can0 1CFFC6F7#FA2F000000300026
(0000000000002.775592) can0 1CFFC7F7#0320032000AD0000
(0000000000002.775848) can0 0CFFC2F7#134E009702580000
(0000000000002.776146) can0 0CFFC8F7#0000000001000000
(0000000000002.776402) can0 18FFCCF7#0161016501690000
(0000000000002.776701) can0 18FFCBF7#010400F604610000
(0000000000002.777000) can0 1CFFC5F7#01F5014A095605DF
(0000000000002.777256) can0 0CFFC3F7#1255411540D40041
(0000000000002.777597) can0 18FFC4F7#0000009600000000
(0000000000002.777853) can0 0CFFCAF7#0001F32D00000001
(0000000000002.783143) can0 00000601#2305180181020080
(0000000000002.793240) can0 00FFAB41#0100000001000001
(0000000000002.793270) can0 00000601#2305180181020080
(0000000000002.794212) can0 0CFFAE41#125C025800000000
(0000000000002.794214) can0 0CFFAC41#0000009600000000
(0000000000002.803153) can0 00000601#2305180181020080
(0000000000002.813136) can0 00000601#2305180181020080
(0000000000002.823162) can0 00000601#2305180181020080
(0000000000002.833146) can0 00000601#2305180181020080
(0000000000002.843129) can0 00000601#2305180181020080
(0000000000002.853198) can0 00000601#2305180181020080
(0000000000002.863224) can0 00000601#2305180181020080
(0000000000002.873207) can0 00000601#2305180181020080
(0000000000002.874146) can0 00000301#7E008813
(0000000000002.874444) can0 18FFD1F7#0B1A0B1D0B140000
(0000000000002.874700) can0 18FFD0F7#0097009700970000
(0000000000002.874999) can0 18FFC9F7#125C025800000000
(0000000000002.875298) can0 1CFFC6F7#FA31000000300026
(0000000000002.875596) can0 1CFFC7F7#0320032000AD0000
(0000000000002.875852) can0 0CFFC2F7#134E009702580000
(0000000000002.876151) can0 0CFFC8F7#0000000001000000
(0000000000002.876407) can0 18FFCCF7#0161016501690000
(0000000000002.876706) can0 18FFCBF7#010400F604610000
(0000000000002.877004) can0 1CFFC5F7#01F5014A095605DF
(0000000000002.877260) can0 0CFFC3F7#1255411540D40041
(0000000000002.877559) can0 18FFC4F7#0000009600000000
(0000000000002.877857) can0 0CFFCAF7#0001F32E00000000
(0000000000002.883148) can0 00000601#2305180181020080
(0000000000002.893131) can0 00000601#2305180181020080
(0000000000002.893525) can0 00FFAB41#0100000001000001
(0000000000002.893527) can0 0CFFAE41#125C025800000000
(0000000000002.894520) can0 0CFFAC41#0000009600000000
(0000000000002.903157) can0 00000601#2305180181020080
(0000000000002.913141) can0 00000601#2305180181020080
(0000000000002.923124) can0 00000601#2305180181020080
(0000000000002.933150) can0 00000601#2305180181020080
(0000000000002.943133) can0 00000601#2305180181020080
(0000000000002.953202) can0 00000601#2305180181020080
(0000000000002.963228) can0 00000601#2305180181020080
(0000000000002.973211) can0 00000601#2305180181020080
(0000000000002.974150) can0 00000301#7E008813
(0000000000002.974449) can0 18FFD1F7#0B190B1C0B140000
(0000000000002.974747) can0 18FFD0F7#0097009700970000
(0000000000002.975003) can0 18FFC9F7#125C025800000000
(0000000000002.975259) can0 1CFFC6F7#FA2F000000300026
(0000000000002.975601) can0 1CFFC7F7#0320032000AD0000
(0000000000002.975857) can0 0CFFC2F7#134E009702580000
(0000000000002.976155) can0 0CFFC8F7#0000000001000000
(0000000000002.976411) can0 18FFCCF7#0161016501690000
(0000000000002.976710) can0 18FFCBF7#010400F604610000
(0000000000002.977009) can0 1CFFC5F7#01F5014A095605DF
(0000000000002.977265) can0 0CFFC3F7#1255411540D40041
(0000000000002.977563) can0 18FFC4F7#0000009600000000
(0000000000002.977862) can0 0CFFCAF7#0001F32600000000
(0000000000002.983152) can0 00000601#2305180181020080
(0000000000002.993136) can0 00000601#2305180181020080
(0000000000002.993379) can0 00FFAB41#0100000001000001
(0000000000002.994363) can0 0CFFAE41#125C025800000000
(0000000000002.994364) can0 0CFFAC41#0000009600000000
(0000000000003.003119) can0 00000601#2305180181020080
(0000000000003.013145) can0 00000601#2305180181020080
(0000000000003.023128) can0 00000601#2305180181020080
(0000000000003.033154) can0 00000601#2305180181020080
(0000000000003.043138) can0 00000601#2305180181020080
(0000000000003.053206) can0 00000601#2305180181020080
(0000000000003.063190) can0 00000601#2305180181020080
(0000000000003.073216) can0 00000601#2305180181020080
(0000000000003.074155) can0 00000301#7E008813
(0000000000003.074410) can0 18FFD1F7#0B190B1C0B140000
(0000000000003.074709) can0 18FFD0F7#0097009700970000
(0000000000003.075008) can0 18FFC9F7#125C025800000000
(0000000000003.075264) can0 1CFFC6F7#FA31000000300026
(0000000000003.075562) can0 1CFFC7F7#0320032000AD0000
(0000000000003.075861) can0 0CFFC2F7#134E009702580000
(0000000000003.076117) can0 0CFFC8F7#0000000001000000
(0000000000003.076416) can0 18FFCCF7#0161016601690000
(0000000000003.076714) can0 18FFCBF7#010400F604600000
(0000000000003.077013) can0 1CFFC5F7#01F5014A095705DF
(0000000000003.077269) can0 0CFFC3F7#1255411540D40041
(0000000000003.077568) can0 18FFC4F7#0000009600000000
(0000000000003.077866) can0 0CFFCAF7#0001F32500000000
(0000000000003.083157) can0 00000601#2305180181020080
(0000000000003.093140) can0 00000601#2305180181020080
(0000000000003.093282) can0 00FFAB41#0100000001000001
(0000000000003.094289) can0 0CFFAE41#125C025800000000
(0000000000003.094291) can0 0CFFAC41#0000009600000000
(0000000000003.103123) can0 00000601#2305180181020080
(0000000000003.113149) can0 00000601#2305180181020080
(0000000000003.123133) can0 00000601#2305180181020080
(0000000000003.133116) can0 00000601#2305180181020080
(0000000000003.143142) can0 00000601#2305180181020080
(0000000000003.153241) can0 00000601#2305180181020080
(0000000000003.163224) can0 00000601#2305180181020080
(0000000000003.173250) can0 00000601#2305180181020080
(0000000000003.174189) can0 00000301#7E008813
(0000000000003.174445) can0 18FFD1F7#0B190B1C0B140000
(0000000000003.174786) can0 18FFD0F7#0097009700970000
(0000000000003.175042) can0 18FFC9F7#125C025800000000
(0000000000003.175298) can0 1CFFC6F7#FA31000000300026
(0000000000003.175597) can0 1CFFC7F7#0320032000AD0000
(0000000000003.175853) can0 0CFFC2F7#134E009702580000
(0000000000003.176151) can0 0CFFC8F7#0000000001000000
(0000000000003.176450) can0 18FFCCF7#0162016401690000
(0000000000003.176749) can0 18FFCBF7#010400F604610000
(0000000000003.177005) can0 1CFFC5F7#01F5014A095605DF
(0000000000003.177303) can0 0CFFC3F7#1255411540D40041
(0000000000003.177645) can0 18FFC4F7#0000009600000000
(0000000000003.177901) can0 0CFFCAF7#0001F323FFFFFFFF
(0000000000003.183148) can0 00000601#2305180181020080
(0000000000003.193174) can0 00000601#2305180181020080
(0000000000003.193422) can0 00FFAB41#0100000001000001
(0000000000003.194436) can0 0CFFAE41#125C025800000000
(0000000000003.194437) can0 0CFFAC41#0000009600000000
(0000000000003.203158) can0 00000601#2305180181020080
(0000000000003.213141) can0 00000601#2305180181020080
(0000000000003.223167) can0 00000601#2305180181020080
(0000000000003.233151) can0 00000601#2305180181020080
(0000000000003.243177) can0 00000601#2305180181020080
(0000000000003.253245) can0 00000601#2305180181020080
(0000000000003.263229) can0 00000601#2305180181020080
(0000000000003.273212) can0 00000601#2305180181020080
(0000000000003.274151) can0 00000301#7E008813
(0000000000003.274449) can0 18FFD1F7#0B190B1C0B140000
(0000000000003.274748) can0 18FFD0F7#0097009700970000
(0000000000003.275047) can0 18FFC9F7#125C025800000000
(0000000000003.275303) can0 1CFFC6F7#FA2D000000300026
(0000000000003.275601) can0 1CFFC7F7#0320032000AE0000
(0000000000003.275900) can0 0CFFC2F7#1350009702580000
(0000000000003.276156) can0 0CFFC8F7#0000000001000000
(0000000000003.276455) can0 18FFCCF7#0161016401690000
(0000000000003.276711) can0 18FFCBF7#010400F604610000
(0000000000003.277009) can0 1CFFC5F7#01F5014A095505E0
(0000000000003.277308) can0 0CFFC3F7#1255411540D40041
(0000000000003.277606) can0 18FFC4F7#0000009600000000
(0000000000003.277862) can0 0CFFCAF7#0001F32100000000
(0000000000003.283153) can0 00000601#2305180181020080
(0000000000003.293112) can0 00FFAB41#0100000001000001
(0000000000003.293179) can0 00000601#2305180181020080
(0000000000003.294097) can0 0CFFAE41#125C025800000000
(0000000000003.294098) can0 0CFFAC41#0000009600000000
(0000000000003.303162) can0 00000601#2305180181020080
(0000000000003.313146) can0 00000601#2305180181020080
(0000000000003.323172) can0 00000601#2305180181020080
(0000000000003.333155) can0 00000601#2305180181020080
(0000000000003.343138) can0 00000601#2305180181020080
(0000000000003.353207) can0 00000601#2305180181020080
(0000000000003.363233) can0 00000601#2305180181020080
(0000000000003.373216) can0 00000601#2305180181020080
(0000000000003.374155) can0 00000301#7E008813
(0000000000003.374454) can0 18FFD1F7#0B190B1C0B140000
(0000000000003.374752) can0 18FFD0F7#0097009700970000
(0000000000003.375051) can0 18FFC9F7#125C025800000000
(0000000000003.375307) can0 1CFFC6F7#FA2F000000300026
(0000000000003.375606) can0 1CFFC7F7#0320032000AE0000
(0000000000003.375862) can0 0CFFC2F7#134F009702580000
(0000000000003.376160) can0 0CFFC8F7#0000000001000000
(0000000000003.376459) can0 18FFCCF7#0161016501690000
(0000000000003.376715) can0 18FFCBF7#010400F604610000
(0000000000003.377014) can0 1CFFC5F7#01F5014A095505DF
(0000000000003.377270) can0 0CFFC3F7#1255411540D40041
(0000000000003.377611) can0 18FFC4F7#0000009600000000
(0000000000003.377867) can0 0CFFCAF7#0001F31E00000001
(0000000000003.383157) can0 00000601#2305180181020080
(0000000000003.393141) can0 00000601#2305180181020080
(0000000000003.393479) can0 00FFAB41#0100000001000001
(0000000000003.394433) can0 0CFFAE41#125C025800000000
(0000000000003.394435) can0 0CFFAC41#0000009600000000
(0000000000003.403167) can0 00000601#2305180181020080
(0000000000003.413150) can0 00000601#2305180181020080
(0000000000003.423133) can0 00000601#2305180181020080
(0000000000003.433159) can0 00000601#2305180181020080
(0000000000003.443143) can0 00000601#2305180181020080
(0000000000003.453211) can0 00000601#2305180181020080
(0000000000003.463238) can0 00000601#2305180181020080
(0000000000003.473221) can0 00000601#2305180181020080
(0000000000003.474160) can0 00000301#7E008813
(0000000000003.474458) can0 18FFD1F7#0B1A0B1C0B140000
(0000000000003.474714) can0 18FFD0F7#0097009700970000
(0000000000003.475013) can0 18FFC9F7#125C025800000000
(0000000000003.475311) can0 1CFFC6F7#FA32000000300026
(0000000000003.475610) can0 1CFFC7F7#0320032000AE0000
(0000000000003.475866) can0 0CFFC2F7#1350009702580000
(0000000000003.476165) can0 0CFFC8F7#0000000001000000
(0000000000003.476421) can0 18FFCCF7#0162016401690000
(0000000000003.476719) can0 18FFCBF7#010400F604610000
(0000000000003.477018) can0 1CFFC5F7#01F5014A095505E0
(0000000000003.477274) can0 0CFFC3F7#1255411540D40041
(0000000000003.477573) can0 18FFC4F7#0000009600000000
(0000000000003.477871) can0 0CFFCAF7#0001F31F00000001
(0000000000003.483162) can0 00000601#2305180181020080
(0000000000003.493145) can0 00000601#2305180181020080
(0000000000003.493591) can0 00FFAB41#0100000001000001
(0000000000003.493592) can0 0CFFAE41#125C025800000000
(0000000000003.494588) can0 0CFFAC41#0000009600000000
(0000000000003.503171) can0 00000601#2305180181020080
(0000000000003.513154) can0 00000601#2305180181020080
(0000000000003.523138) can0 00000601#2305180181020080
(0000000000003.533164) can0 00000601#2305180181020080
(0000000000003.543147) can0 00000601#2305180181020080
(0000000000003.553216) can0 00000601#2305180181020080
(0000000000003.563242) can0 00000601#2305180181020080
(0000000000003.573225) can0 00000601#2305180181020080
(0000000000003.574164) can0 00000301#7E008813
(0000000000003.574420) can0 18FFD1F7#0B190B1C0B140000
(0000000000003.574719) can0 18FFD0F7#0097009700970000
(0000000000003.575017) can0 18FFC9F7#125C025800000000
(0000000000003.575316) can0 1CFFC6F7#FA31000000300026
(0000000000003.575614) can0 1CFFC7F7#0320032000AE0000
(0000000000003.575870) can0 0CFFC2F7#1350009702580000
(0000000000003.576169) can0 0CFFC8F7#0000000001000000
(0000000000003.576425) can0 18FFCCF7#0160016401690000
(0000000000003.576724) can0 18FFCBF7#010400F604610000
(0000000000003.577022) can0 1CFFC5F7#01F5014A095605DF
(0000000000003.577278) can0 0CFFC3F7#1255411540D40041
(0000000000003.577577) can0 18FFC4F7#0000009600000000
(0000000000003.577876) can0 0CFFCAF7#0001F31C00000001
(0000000000003.583166) can0 00000601#2305180181020080
(0000000000003.593149) can0 00000601#2305180181020080
(0000000000003.593991) can0 00FFAB41#0100000001000001
(0000000000003.593992) can0 0CFFAE41#125C025800000000
(0000000000003.593993) can0 0CFFAC41#0000009600000000
(0000000000003.603133) can0 00000601#2305180181020080
(0000000000003.613159) can0 00000601#2305180181020080
(0000000000003.623142) can0 00000601#2305180181020080
(0000000000003.633168) can0 00000601#2305180181020080
(0000000000003.643152) can0 00000601#2305180181020080
(0000000000003.653220) can0 00000601#2305180181020080
(0000000000003.663204) can0 00000601#2305180181020080
(0000000000003.673230) can0 00000601#2305180181020080
(0000000000003.674168) can0 00000301#7E008813
(0000000000003.674467) can0 18FFD1F7#0B190B1C0B130000
(0000000000003.674723) can0 18FFD0F7#0097009700970000
(0000000000003.675022) can0 18FFC9F7#125C025800000000
(0000000000003.675278) can0 1CFFC6F7#FA31000000300026
(0000000000003.675576) can0 1CFFC7F7#0320032000AE0000
(0000000000003.675832) can0 0CFFC2F7#1351009702580000
(0000000000003.676174) can0 0CFFC8F7#0000000001000000
(0000000000003.676430) can0 18FFCCF7#0161016501690000
(0000000000003.676728) can0 18FFCBF7#010400F604610000
(0000000000003.676984) can0 1CFFC5F7#01F5014A095505DF
(0000000000003.677283) can0 0CFFC3F7#1255411540D40041
(0000000000003.677581) can0 18FFC4F7#0000009600000000
(0000000000003.677837) can0 0CFFCAF7#0001F31700000003
(0000000000003.683128) can0 00000601#2305180181020080
(0000000000003.693154) can0 00000601#2305180181020080
(0000000000003.693898) can0 00FFAB41#0100000001000001
(0000000000003.693899) can0 0CFFAE41#125C025800000000
(0000000000003.693900) can0 0CFFAC41#0000009600000000
(0000000000003.703137) can0 00000601#2305180181020080
(0000000000003.713163) can0 00000601#2305180181020080
(0000000000003.723147) can0 00000601#2305180181020080
(0000000000003.733130) can0 00000601#2305180181020080
(0000000000003.743156) can0 00000601#2305180181020080
(0000000000003.753225) can0 00000601#2305180181020080
(0000000000003.763208) can0 00000601#2305180181020080
(0000000000003.773234) can0 00000601#2305180181020080
(0000000000003.774130) can0 00000301#7E008813
(0000000000003.774429) can0 18FFD1F7#0B1A0B1C0B140000
(0000000000003.774727) can0 18FFD0F7#0097009700970000
(0000000000003.774983) can0 18FFC9F7#125C025800000000
(0000000000003.775282) can0 1CFFC6F7#FA31000000300026
(0000000000003.775581) can0 1CFFC7F7#0320032000AE0000
(0000000000003.775837) can0 0CFFC2F7#1352009702580000
(0000000000003.776135) can0 0CFFC8F7#0000000001000000
(0000000000003.776434) can0 18FFCCF7#01620164016A0000
(0000000000003.776733) can0 18FFCBF7#010400F604610000
(0000000000003.776989) can0 1CFFC5F7#01F5014A095605E0
(0000000000003.777287) can0 0CFFC3F7#1255411540D40041
(0000000000003.777586) can0 18FFC4F7#0000009600000000
(0000000000003.777842) can0 0CFFCAF7#0001F31300000003
(0000000000003.783132) can0 00000601#2305180181020080
(0000000000003.793200) can0 00FFAB41#0100000001000001
(0000000000003.793230) can0 00000601#2305180181020080
(0000000000003.794186) can0 0CFFAE41#125C025800000000
(0000000000003.794187) can0 0CFFAC41#0000009600000000
(0000000000003.803142) can0 00000601#2305180181020080
(0000000000003.813125) can0 00000601#2305180181020080
(0000000000003.823151) can0 00000601#2305180181020080
(0000000000003.833134) can0 00000601#2305180181020080
(0000000000003.843160) can0 00000601#2305180181020080
(0000000000003.853229) can0 00000601#2305180181020080
(0000000000003.863213) can0 00000601#2305180181020080
(0000000000003.873196) can0 00000601#2305180181020080
(0000000000003.874135) can0 00000301#7E008813
(0000000000003.874433) can0 18FFD1F7#0B190B1C0B130000
(0000000000003.874732) can0 18FFD0F7#0098009800980000
(0000000000003.874988) can0 18FFC9F7#125C025800000000
(0000000000003.875329) can0 1CFFC6F7#FA31000000300026
(0000000000003.875585) can0 1CFFC7F7#0320032000AE0000
(0000000000003.875841) can0 0CFFC2F7#1352009702580000
(0000000000003.876140) can0 0CFFC8F7#0000000001000000
(0000000000003.876438) can0 18FFCCF7#0161016401690000
(0000000000003.876694) can0 18FFCBF7#010400F604610000
(0000000000003.876993) can0 1CFFC5F7#01F5014A095605E0
(0000000000003.877292) can0 0CFFC3F7#1255411540D40041
(0000000000003.877548) can0 18FFC4F7#0000009600000000
(0000000000003.877846) can0 0CFFCAF7#0001F30F00000005
(0000000000003.883137) can0 00000601#2305180181020080
(0000000000003.893163) can0 00000601#2305180181020080
(0000000000003.893396) can0 00FFAB41#0100000001000001
(0000000000003.894407) can0 0CFFAE41#125C025800000000
(0000000000003.894411) can0 0CFFAC41#0000009600000000
(0000000000003.903146) can0 00000601#2305180181020080
(0000000000003.913129) can0 00000601#2305180181020080
(0000000000003.923155) can0 00000601#2305180181020080
(0000000000003.933139) can0 00000601#2305180181020080
(0000000000003.943122) can0 00000601#2305180181020080
(0000000000003.953191) can0 00000601#2305180181020080
(0000000000003.963217) can0 00000601#2305180181020080
(0000000000003.973200) can0 00000601#2305180181020080
(0000000000003.974139) can0 00000301#7E008813
(0000000000003.974438) can0 18FFD1F7#0B190B1C0B140000
(0000000000003.974694) can0 18FFD0F7#0097009700970000
(0000000000003.974992) can0 18FFC9F7#125C025800000000
(0000000000003.975291) can0 1CFFC6F7#FA2D000000300026
(0000000000003.975589) can0 1CFFC7F7#0320032000AE0000
(0000000000003.975845) can0 0CFFC2F7#1352009702580000
(0000000000003.976144) can0 0CFFC8F7#0000000001000000
(0000000000003.976400) can0 18FFCCF7#0161016501690000
(0000000000003.976699) can0 18FFCBF7#010400F604610000
(0000000000003.976997) can0 1CFFC5F7#01F5014A095405DF
(0000000000003.977253) can0 0CFFC3F7#1255411540D40041
(0000000000003.977552) can0 18FFC4F7#0000009600000000
(0000000000003.977851) can0 0CFFCAF7#0001F31200000004
(0000000000003.983141) can0 00000601#2305180181020080
(0000000000003.993124) can0 00000601#2305180181020080
(0000000000003.993692) can0 00FFAB41#0100000001000001
(0000000000003.993695) can0 0CFFAE41#125C025800000000
(0000000000003.994683) can0 0CFFAC41#0000009600000000
(0000000000004.003150) can0 00000601#2305180181020080
(0000000000004.013134) can0 00000601#2305180181020080
(0000000000004.023117) can0 00000601#2305180181020080
(0000000000004.033143) can0 00000601#2305180181020080
(0000000000004.043127) can0 00000601#2305180181020080
(0000000000004.053195) can0 00000601#2305180181020080
(0000000000004.063221) can0 00000601#2305180181020080
(0000000000004.073205) can0 00000601#2305180181020080
(0000000000004.074143) can0 00000301#7E008813
(0000000000004.074442) can0 18FFD1F7#0B190B1C0B130000
(0000000000004.074698) can0 18FFD0F7#0097009700970000
(0000000000004.074997) can0 18FFC9F7#125C025800000000
(0000000000004.075295) can0 1CFFC6F7#FA31000000300026
(0000000000004.075551) can0 1CFFC7F7#0320032000AE0000
(0000000000004.075850) can0 0CFFC2F7#1353009702580000
(0000000000004.076149) can0 0CFFC8F7#0000000001000000
(0000000000004.076405) can0 18FFCCF7#0162016401690000
(0000000000004.076703) can0 18FFCBF7#010400F604610000
(0000000000004.077002) can0 1CFFC5F7#01F5014A095605DF
(0000000000004.077300) can0 0CFFC3F7#1255411540D40041
(0000000000004.077556) can0 18FFC4F7#0000009600000000
(0000000000004.077855) can0 0CFFCAF7#0001F30C00000005
(0000000000004.083145) can0 00000601#2305180181020080
(0000000000004.093129) can0 00000601#2305180181020080
(0000000000004.093756) can0 00FFAB41#0100000001000001
(0000000000004.093758) can0 0CFFAE41#125C025800000000
(0000000000004.093758) can0 0CFFAC41#0000009600000000
(0000000000004.103112) can0 00000601#2305180181020080
(0000000000004.113138) can0 00000601#2305180181020080
(0000000000004.123122) can0 00000601#2305180181020080
(0000000000004.133148) can0 00000601#2305180181020080
(0000000000004.143131) can0 00000601#2305180181020080
(0000000000004.153200) can0 00000601#2305180181020080
(0000000000004.163183) can0 00000601#2305180181020080
(0000000000004.173209) can0 00000601#2305180181020080
(0000000000004.174148) can0 00000301#7E008813
(0000000000004.174446) can0 18FFD1F7#0B180B1B0B130000
(0000000000004.174702) can0 18FFD0F7#0097009700970000
(0000000000004.175001) can0 18FFC9F7#125C025800000000
(0000000000004.175300) can0 1CFFC6F7#FA31000000300026
(0000000000004.175556) can0 1CFFC7F7#0320032000AE0000
(0000000000004.175812) can0 0CFFC2F7#1353009702580000
(0000000000004.176110) can0 0CFFC8F7#0000000001000000
(0000000000004.176452) can0 18FFCCF7#0163016401690000
(0000000000004.176708) can0 18FFCBF7#010400F604610000
(0000000000004.176964) can0 1CFFC5F7#01F5014A095605DF
(0000000000004.177262) can0 0CFFC3F7#1255411540D40041
(0000000000004.177561) can0 18FFC4F7#0000009600000000
(0000000000004.177860) can0 0CFFCAF7#0001F30600000004
(0000000000004.183150) can0 00000601#2305180181020080
(0000000000004.193459) can0 00FFAB41#0100000001000001
(0000000000004.193489) can0 00000601#2305180181020080
(0000000000004.194410) can0 0CFFAE41#125C025800000000
(0000000000004.194416) can0 0CFFAC41#0000009600000000
(0000000000004.203147) can0 00000601#2305180181020080
(0000000000004.213173) can0 00000601#2305180181020080
(0000000000004.223156) can0 00000601#2305180181020080
(0000000000004.233139) can0 00000601#2305180181020080
(0000000000004.243165) can0 00000601#2305180181020080
(0000000000004.253234) can0 00000601#2305180181020080
(0000000000004.263218) can0 00000601#2305180181020080
(0000000000004.273244) can0 00000601#2305180181020080
(0000000000004.274182) can0 00000301#7E008813
(0000000000004.274481) can0 18FFD1F7#0B180B1B0B130000
(0000000000004.274737) can0 18FFD0F7#0097009700970000
(0000000000004.274993) can0 18FFC9F7#125C025800000000
(0000000000004.275291) can0 1CFFC6F7#FA31000000300026
(0000000000004.275590) can0 1CFFC7F7#0320032000AE0000
(0000000000004.275846) can0 0CFFC2F7#1353009702580000
(0000000000004.276145) can0 0CFFC8F7#0000000001000000
(0000000000004.276443) can0 18FFCCF7#0163016501690000
(0000000000004.276699) can0 18FFCBF7#010300F604610000
(0000000000004.276998) can0 1CFFC5F7#01F5014A095605DF
(0000000000004.277297) can0 0CFFC3F7#1255411540D40041
(0000000000004.277553) can0 18FFC4F7#0000009600000000
(0000000000004.277851) can0 0CFFCAF7#0001F30200000005
(0000000000004.283142) can0 00000601#2305180181020080
(0000000000004.293025) can0 00FFAB41#0100000001000001
(0000000000004.293168) can0 00000601#2305180181020080
(0000000000004.294013) can0 0CFFAE41#125C025800000000
(0000000000004.294014) can0 0CFFAC41#0000009600000000
(0000000000004.303151) can0 00000601#2305180181020080
(0000000000004.313177) can0 00000601#2305180181020080
(0000000000004.323160) can0 00000601#2305180181020080
(0000000000004.333144) can0 00000601#2305180181020080
(0000000000004.343170) can0 00000601#2305180181020080
(0000000000004.353239) can0 00000601#2305180181020080
(0000000000004.363222) can0 00000601#2305180181020080
(0000000000004.373248) can0 00000601#2305180181020080
(0000000000004.374144) can0 00000301#7E008813
(0000000000004.374443) can0 18FFD1F7#0B110B1D0B130000
(0000000000004.374741) can0 18FFD0F7#0097009700970000
(0000000000004.374997) can0 18FFC9F7#125C025800000000
(0000000000004.375296) can0 1CFFC6F7#FA2F000000300026
(0000000000004.375594) can0 1CFFC7F7#0320032000AE0000
(0000000000004.375850) can0 0CFFC2F7#1353009702580000
(0000000000004.376149) can0 0CFFC8F7#0000000001000000
(0000000000004.376448) can0 18FFCCF7#0162016501690000
(0000000000004.376704) can0 18FFCBF7#010400F604610000
(0000000000004.377002) can0 1CFFC5F7#01F5014A095605DF
(0000000000004.377301) can0 0CFFC3F7#1255411540D40041
(0000000000004.377557) can0 18FFC4F7#0000009600000000
(0000000000004.377856) can0 0CFFCAF7#0001F2EB00000004
(0000000000004.383146) can0 00000601#2305180181020080
(0000000000004.393172) can0 00000601#2305180181020080
(0000000000004.393831) can0 00FFAB41#0100000001000001
(0000000000004.393833) can0 0CFFAE41#125C025800000000
(0000000000004.393833) can0 0CFFAC41#0000009600000000
(0000000000004.403155) can0 00000601#2305180181020080
(0000000000004.413139) can0 00000601#2305180181020080
(0000000000004.423165) can0 00000601#2305180181020080
(0000000000004.433148) can0 00000601#2305180181020080
(0000000000004.443132) can0 00000601#2305180181020080
(0000000000004.453243) can0 00000601#2305180181020080
(0000000000004.463226) can0 00000601#2305180181020080
(0000000000004.473210) can0 00000601#2305180181020080
(0000000000004.474148) can0 00000301#7E008813
(0000000000004.474447) can0 18FFD1F7#0B110B1D0B120000
(0000000000004.474703) can0 18FFD0F7#0097009700970000
(0000000000004.475002) can0 18FFC9F7#125C025800000000
(0000000000004.475300) can0 1CFFC6F7#FA31000000300026
(0000000000004.475556) can0 1CFFC7F7#0320032000AE0000
(0000000000004.475855) can0 0CFFC2F7#1353009702580000
(0000000000004.476154) can0 0CFFC8F7#0000000001000000
(0000000000004.476410) can0 18FFCCF7#0162016501690000
(0000000000004.476708) can0 18FFCBF7#010400F604610000
(0000000000004.477007) can0 1CFFC5F7#01F5014A095605E0
(0000000000004.477305) can0 0CFFC3F7#1255411540D40041
(0000000000004.477561) can0 18FFC4F7#0000009600000000
(0000000000004.477860) can0 0CFFCAF7#0001F2CD00000006
(0000000000004.483150) can0 00000601#2305180181020080
(0000000000004.493134) can0 00000601#2305180181020080
(0000000000004.493291) can0 00FFAB41#0100000001000001
(0000000000004.494253) can0 0CFFAE41#125C025800000000
(0000000000004.494254) can0 0CFFAC41#0000009600000000
(0000000000004.503160) can0 00000601#2305180181020080
(0000000000004.513143) can0 00000601#2305180181020080
(0000000000004.523169) can0 00000601#2305180181020080
(0000000000004.533153) can0 00000601#2305180181020080
(0000000000004.543136) can0 00000601#2305180181020080
(0000000000004.553205) can0 00000601#2305180181020080
(0000000000004.563231) can0 00000601#2305180181020080
(0000000000004.573214) can0 00000601#2305180181020080
(0000000000004.574153) can0 00000301#7E008813
(0000000000004.574451) can0 18FFD1F7#0B110B1D0B120000
(0000000000004.574707) can0 18FFD0F7#0097009700970000
(0000000000004.575006) can0 18FFC9F7#125C025800000000
(0000000000004.575262) can0 1CFFC6F7#FA31000000300026
(0000000000004.575561) can0 1CFFC7F7#0320032000AE0000
(0000000000004.575859) can0 0CFFC2F7#1353009702580000
(0000000000004.576158) can0 0CFFC8F7#0000000001000000
(0000000000004.576414) can0 18FFCCF7#0162016501690000
(0000000000004.576713) can0 18FFCBF7#010400F604610000
(0000000000004.577011) can0 1CFFC5F7#01F5014A095405DF
(0000000000004.577310) can0 0CFFC3F7#1255411540D40041
(0000000000004.577566) can0 18FFC4F7#0000009600000000
(0000000000004.577865) can0 0CFFCAF7#0001F2AF00000005
(0000000000004.583155) can0 00000601#2305180181020080
(0000000000004.593138) can0 00000601#2305180181020080
(0000000000004.593513) can0 00FFAB41#0100000001000001
(0000000000004.593514) can0 0CFFAE41#125C025800000000
(0000000000004.594521) can0 0CFFAC41#0000009600000000
(0000000000004.603164) can0 00000601#2305180181020080
(0000000000004.613148) can0 00000601#2305180181020080
(0000000000004.623131) can0 00000601#2305180181020080
(0000000000004.633157) can0 00000601#2305180181020080
(0000000000004.643140) can0 00000601#2305180181020080
(0000000000004.653209) can0 00000601#2305180181020080
(0000000000004.663235) can0 00000601#2305180181020080
(0000000000004.673219) can0 00000601#2305180181020080
(0000000000004.674157) can0 00000301#7E008813
(0000000000004.674456) can0 18FFD1F7#0B100B1D0B120000
(0000000000004.674712) can0 18FFD0F7#0097009700970000
(0000000000004.675010) can0 18FFC9F7#125C025800000000
(0000000000004.675309) can0 1CFFC6F7#FA2D000000300026
(0000000000004.675565) can0 1CFFC7F7#0320032000AD0000
(0000000000004.675864) can0 0CFFC2F7#1354009702580000
(0000000000004.676162) can0 0CFFC8F7#0000000001000000
(0000000000004.676418) can0 18FFCCF7#01610165016A0000
(0000000000004.676717) can0 18FFCBF7#010400F604610000
(0000000000004.677016) can0 1CFFC5F7#01F5014A095605E0
(0000000000004.677314) can0 0CFFC3F7#1255411540D40041
(0000000000004.677570) can0 18FFC4F7#0000009600000000
(0000000000004.677869) can0 0CFFCAF7#0001F29400000005
(0000000000004.683159) can0 00000601#2305180181020080
(0000000000004.693143) can0 00000601#2305180181020080
(0000000000004.693465) can0 00FFAB41#0100000001000001
(0000000000004.694451) can0 0CFFAE41#125C025800000000
(0000000000004.694452) can0 0CFFAC41#0000009600000000
(0000000000004.703126) can0 00000601#2305180181020080
(0000000000004.713152) can0 00000601#2305180181020080
(0000000000004.723135) can0 00000601#2305180181020080
(0000000000004.733161) can0 00000601#2305180181020080
(0000000000004.743145) can0 00000601#2305180181020080
(0000000000004.753214) can0 00000601#2305180181020080
(0000000000004.763197) can0 00000601#2305180181020080
(0000000000004.773223) can0 00000601#2305180181020080
(0000000000004.774162) can0 00000301#7E008813
(0000000000004.774460) can0 18FFD1F7#0B140B180B140000
(0000000000004.774716) can0 18FFD0F7#0097009700970000
(0000000000004.775015) can0 18FFC9F7#125C025800000000
(0000000000004.775314) can0 1CFFC6F7#FA31000000300026
(0000000000004.775569) can0 1CFFC7F7#0320032000AE0000
(0000000000004.775868) can0 0CFFC2F7#1355009702580000
(0000000000004.776124) can0 0CFFC8F7#0000000001000000
(0000000000004.776423) can0 18FFCCF7#01610165016A0000
(0000000000004.776721) can0 18FFCBF7#010400F604610000
(0000000000004.776977) can0 1CFFC5F7#01F5014A095605E0
(0000000000004.777276) can0 0CFFC3F7#1255411540D40041
(0000000000004.777575) can0 18FFC4F7#0000009600000000
(0000000000004.777873) can0 0CFFCAF7#0001F28C00000005
(0000000000004.783164) can0 00000601#2305180181020080
(0000000000004.793147) can0 00000601#2305180181020080
(0000000000004.794568) can0 00FFAB41#0100000001000001
(0000000000004.794570) can0 0CFFAE41#125C025800000000
(0000000000004.794570) can0 0CFFAC41#0000009600000000
(0000000000004.803130) can0 00000601#2305180181020080
(0000000000004.813156) can0 00000601#2305180181020080
(0000000000004.823140) can0 00000601#2305180181020080
(0000000000004.833123) can0 00000601#2305180181020080
(0000000000004.843149) can0 00000601#2305180181020080
(0000000000004.853218) can0 00000601#2305180181020080
(0000000000004.863201) can0 00000601#2305180181020080
(0000000000004.873227) can0 00000601#2305180181020080
(0000000000004.874123) can0 00000301#7E008813
(0000000000004.874465) can0 18FFD1F7#0B140B180B140000
(0000000000004.874721) can0 18FFD0F7#0097009700970000
(0000000000004.875019) can0 18FFC9F7#125C025800000000
(0000000000004.875275) can0 1CFFC6F7#FA31000000300026
(0000000000004.875574) can0 1CFFC7F7#0320032000AE0000
(0000000000004.875830) can0 0CFFC2F7#1355009702580000
(0000000000004.876129) can0 0CFFC8F7#0000000001000000
(0000000000004.876427) can0 18FFCCF7#0162016601690000
(0000000000004.876726) can0 18FFCBF7#010400F504610000
(0000000000004.876982) can0 1CFFC5F7#01F5014A095605DF
(0000000000004.877280) can0 0CFFC3F7#1255411540D40041
(0000000000004.877579) can0 18FFC4F7#0000009600000000
(0000000000004.877878) can0 0CFFCAF7#0001F28800000005
(0000000000004.883125) can0 00000601#2305180181020080
(0000000000004.893151) can0 00000601#2305180181020080
(0000000000004.893784) can0 00FFAB41#0100000001000001
(0000000000004.893786) can0 0CFFAE41#125C025800000000
(0000000000004.893786) can0 0CFFAC41#0000009600000000
(0000000000004.903135) can0 00000601#2305180181020080
(0000000000004.913118) can0 00000601#2305180181020080
(0000000000004.923144) can0 00000601#2305180181020080
(0000000000004.933128) can0 00000601#2305180181020080
(0000000000004.943154) can0 00000601#2305180181020080
(0000000000004.953222) can0 00000601#2305180181020080
(0000000000004.963206) can0 00000601#2305180181020080
(0000000000004.973189) can0 00000601#2305180181020080
(0000000000004.974128) can0 00000301#7E008813
(0000000000004.974426) can0 18FFD1F7#0B110B1D0B110000
(0000000000004.974682) can0 18FFD0F7#0097009700970000
(0000000000004.974981) can0 18FFC9F7#125C025800000000
(0000000000004.975280) can0 1CFFC6F7#FA2D000000300026
(0000000000004.975536) can0 1CFFC7F7#0320032000AE0000
(0000000000004.975877) can0 0CFFC2F7#1355009702580000
(0000000000004.976133) can0 0CFFC8F7#0000000001000000
(0000000000004.976389) can0 18FFCCF7#0162016501690000
(0000000000004.976688) can0 18FFCBF7#010400F604610000
(0000000000004.976986) can0 1CFFC5F7#01F5014A095605DF
(0000000000004.977242) can0 0CFFC3F7#1255411540D40041
(0000000000004.977541) can0 18FFC4F7#0000009600000000
(0000000000004.977840) can0 0CFFCAF7#0001F27800000005
(0000000000004.983130) can0 00000601#2305180181020080
(0000000000004.993156) can0 00000601#2305180181020080
(0000000000004.993858) can0 00FFAB41#0100000001000001
(0000000000004.993859) can0 0CFFAE41#125C025800000000
(0000000000004.993859) can0 0CFFAC41#0000009600000000
(0000000000005.003139) can0 00000601#2305180181020080
(0000000000005.013123) can0 00000601#2305180181020080
(0000000000005.023149) can0 00000601#2305180181020080
(0000000000005.033132) can0 00000601#2305180181020080
(0000000000005.043115) can0 00000601#2305180181020080
(0000000000005.053184) can0 00000601#2305180181020080
(0000000000005.063210) can0 00000601#2305180181020080
(0000000000005.073194) can0 00000601#2305180181020080
(0000000000005.074132) can0 00000301#7E008813
(0000000000005.074431) can0 18FFD1F7#0B100B1D0B120000
(0000000000005.074687) can0 18FFD0F7#0097009700970000
(0000000000005.074985) can0 18FFC9F7#125C025800000000
(0000000000005.075284) can0 1CFFC6F7#FA2F000000300026
(0000000000005.075540) can0 1CFFC7F7#0320032000AE0000
(0000000000005.075881) can0 0CFFC2F7#1355009702580000
(0000000000005.076137) can0 0CFFC8F7#0000000001000000
(0000000000005.076393) can0 18FFCCF7#01620164016A0000
(0000000000005.076692) can0 18FFCBF7#010400F604610000
(0000000000005.076991) can0 1CFFC5F7#01F5014A095505DF
(0000000000005.077247) can0 0CFFC3F7#1255411540D40041
(0000000000005.077545) can0 18FFC4F7#0000009600000000
(0000000000005.077844) can0 0CFFCAF7#0001F26300000005
(0000000000005.083134) can0 00000601#2305180181020080
(0000000000005.093118) can0 00000601#2305180181020080
(0000000000005.093879) can0 00FFAB41#0100000001000001
(0000000000005.093880) can0 0CFFAE41#125C025800000000
(0000000000005.093881) can0 0CFFAC41#0000009600000000
(0000000000005.103144) can0 00000601#2305180181020080
(0000000000005.113127) can0 00000601#2305180181020080
(0000000000005.123110) can0 00000601#2305180181020080
(0000000000005.133136) can0 00000601#2305180181020080
(0000000000005.143120) can0 00000601#2305180181020080
(0000000000005.153189) can0 00000601#2305180181020080
(0000000000005.163215) can0 00000601#2305180181020080
(0000000000005.173198) can0 00000601#2305180181020080
(0000000000005.174137) can0 00000301#7E008813
(0000000000005.174435) can0 18FFD1F7#0B100B1D0B120000
(0000000000005.174691) can0 18FFD0F7#0097009700970000
(0000000000005.174990) can0 18FFC9F7#125C025800000000
(0000000000005.175289) can0 1CFFC6F7#FA2D000000300026
(0000000000005.175544) can0 1CFFC7F7#0320032000AE0000
(0000000000005.175843) can0 0CFFC2F7#1355009702580000
(0000000000005.176142) can0 0CFFC8F7#0000000001000000
(0000000000005.176398) can0 18FFCCF7#01610165016A0000
(0000000000005.176696) can0 18FFCBF7#010400F604610000
(0000000000005.176995) can0 1CFFC5F7#01F5014A095505E0
(0000000000005.177251) can0 0CFFC3F7#1255411540D40041
(0000000000005.177550) can0 18FFC4F7#0000009600000000
(0000000000005.177848) can0 0CFFCAF7#0001F25300000006
(0000000000005.183139) can0 00000601#2305180181020080
(0000000000005.193122) can0 00000601#2305180181020080
(0000000000005.193762) can0 00FFAB41#0100000001000001
(0000000000005.193764) can0 0CFFAE41#125C025800000000
(0000000000005.193764) can0 0CFFAC41#0000009600000000
(0000000000005.203148) can0 00000601#2305180181020080
(0000000000005.213131) can0 00000601#2305180181020080
(0000000000005.223115) can0 00000601#2305180181020080
(0000000000005.233141) can0 00000601#2305180181020080
(0000000000005.243124) can0 00000601#2305180181020080
(0000000000005.253223) can0 00000601#2305180181020080
(0000000000005.263249) can0 00000601#2305180181020080
(0000000000005.273232) can0 00000601#2305180181020080
(0000000000005.274171) can0 00000301#7E008813
(0000000000005.274427) can0 18FFD1F7#0B100B1C0B120000
(0000000000005.274726) can0 18FFD0F7#0097009700970000
(0000000000005.275024) can0 18FFC9F7#125C025800000000
(0000000000005.275323) can0 1CFFC6F7#FA2F000000300026
(0000000000005.275579) can0 1CFFC7F7#0320032000AE0000
(0000000000005.275835) can0 0CFFC2F7#1355009702580000
(0000000000005.276176) can0 0CFFC8F7#0000000001000000
(0000000000005.276432) can0 18FFCCF7#01620165016A0000
(0000000000005.276731) can0 18FFCBF7#010500F604610000
(0000000000005.276987) can0 1CFFC5F7#01F5014A095605E0
(0000000000005.277285) can0 0CFFC3F7#1255411540D40041
(0000000000005.277584) can0 18FFC4F7#0000009600000000
(0000000000005.277840) can0 0CFFCAF7#0001F24500000007
(0000000000005.283173) can0 00000601#2305180181020080
(0000000000005.293156) can0 00000601#2305180181020080
(0000000000005.293739) can0 00FFAB41#0100000001000001
(0000000000005.293740) can0 0CFFAE41#125C025800000000
(0000000000005.293740) can0 0CFFAC41#0000009600000000
(0000000000005.303140) can0 00000601#2305180181020080
(0000000000005.313166) can0 00000601#2305180181020080
(0000000000005.323149) can0 00000601#2305180181020080
(0000000000005.333133) can0 00000601#2305180181020080
(0000000000005.343159) can0 00000601#2305180181020080
(0000000000005.353227) can0 00000601#2305180181020080
(0000000000005.363211) can0 00000601#2305180181020080
(0000000000005.373237) can0 00000601#2305180181020080
(0000000000005.374175) can0 00000301#7E008813
(0000000000005.374431) can0 18FFD1F7#0B100B1D0B110000
(0000000000005.374730) can0 18FFD0F7#0097009700970000
(0000000000005.375029) can0 18FFC9F7#125C025800000000
(0000000000005.375327) can0 1CFFC6F7#FA32000000300026
(0000000000005.375583) can0 1CFFC7F7#0320032000AE0000
(0000000000005.375839) can0 0CFFC2F7#1355009702580000
(0000000000005.376181) can0 0CFFC8F7#0000000001000000
(0000000000005.376437) can0 18FFCCF7#01630165016A0000
(0000000000005.376735) can0 18FFCBF7#010400F604620000
(0000000000005.376991) can0 1CFFC5F7#01F5014A095705DF
(0000000000005.377290) can0 0CFFC3F7#1255411540D40041
(0000000000005.377589) can0 18FFC4F7#0000009600000000
(0000000000005.377845) can0 0CFFCAF7#0001F23400000007
(0000000000005.383178) can0 00000601#2305180181020080
(0000000000005.393026) can0 00FFAB41#0100000001000001
(0000000000005.393161) can0 00000601#2305180181020080
(0000000000005.394025) can0 0CFFAE41#125C025800000000
(0000000000005.394026) can0 0CFFAC41#0000009600000000
(0000000000005.403144) can0 00000601#2305180181020080
(0000000000005.413170) can0 00000601#2305180181020080
(0000000000005.423154) can0 00000601#2305180181020080
(0000000000005.433137) can0 00000601#2305180181020080
(0000000000005.443163) can0 00000601#2305180181020080
(0000000000005.453232) can0 00000601#2305180181020080
(0000000000005.463215) can0 00000601#2305180181020080
(0000000000005.473241) can0 00000601#2305180181020080
(0000000000005.474137) can0 00000301#7E008813
(0000000000005.474436) can0 18FFD1F7#0B100B1D0B120000
(0000000000005.474734) can0 18FFD0F7#0097009700970000
(0000000000005.475033) can0 18FFC9F7#125C025800000000
(0000000000005.475289) can0 1CFFC6F7#FA31000000300026
(0000000000005.475588) can0 1CFFC7F7#0320032000AE0000
(0000000000005.475844) can0 0CFFC2F7#1356009702580000
(0000000000005.476185) can0 0CFFC8F7#0000000001000000
(0000000000005.476441) can0 18FFCCF7#01610165016A0000
(0000000000005.476697) can0 18FFCBF7#010500F604620000
(0000000000005.476996) can0 1CFFC5F7#01F5014A095405DF
(0000000000005.477294) can0 0CFFC3F7#1255411540D40041
(0000000000005.477550) can0 18FFC4F7#0000009600000000
(0000000000005.477849) can0 0CFFCAF7#0001F22600000007
(0000000000005.483139) can0 00000601#2305180181020080
(0000000000005.493201) can0 00FFAB41#0100000001000001
(0000000000005.493231) can0 00000601#2305180181020080
(0000000000005.494184) can0 0CFFAE41#125C025800000000
(0000000000005.494185) can0 0CFFAC41#0000009600000000
(0000000000005.503149) can0 00000601#2305180181020080
(0000000000005.513132) can0 00000601#2305180181020080
(0000000000005.523158) can0 00000601#2305180181020080
(0000000000005.533141) can0 00000601#2305180181020080
(0000000000005.543168) can0 00000601#2305180181020080
(0000000000005.553236) can0 00000601#2305180181020080
(0000000000005.563220) can0 00000601#2305180181020080
(0000000000005.573203) can0 00000601#2305180181020080
(0000000000005.574142) can0 00000301#7E008813
(0000000000005.574440) can0 18FFD1F7#0B0F0B1C0B110000
(0000000000005.574696) can0 18FFD0F7#0097009700970000
(0000000000005.575038) can0 18FFC9F7#125C025800000000
(0000000000005.575294) can0 1CFFC6F7#FA31000000300026
(0000000000005.575549) can0 1CFFC7F7#0320032000AD0000
(0000000000005.575848) can0 0CFFC2F7#1356009702580000
(0000000000005.576147) can0 0CFFC8F7#0000000001000000
(0000000000005.576403) can0 18FFCCF7#01620165016A0000
(0000000000005.576701) can0 18FFCBF7#010500F604610000
(0000000000005.577000) can0 1CFFC5F7#01F5014A095605DF
(0000000000005.577256) can0 0CFFC3F7#1255411540D40041
(0000000000005.577555) can0 18FFC4F7#0000009600000000
(0000000000005.577853) can0 0CFFCAF7#0001F21700000007
(0000000000005.583144) can0 00000601#2305180181020080
(0000000000005.593114) can0 00FFAB41#0100000001000001
(0000000000005.593170) can0 00000601#2305180181020080
(0000000000005.594068) can0 0CFFAE41#125C025800000000
(0000000000005.594070) can0 0CFFAC41#0000009600000000
(0000000000005.603153) can0 00000601#2305180181020080
(0000000000005.613136) can0 00000601#2305180181020080
(0000000000005.623163) can0 00000601#2305180181020080
(0000000000005.633146) can0 00000601#2305180181020080
(0000000000005.643129) can0 00000601#2305180181020080
(0000000000005.653198) can0 00000601#2305180181020080
(0000000000005.663224) can0 00000601#2305180181020080
(0000000000005.673207) can0 00000601#2305180181020080
(0000000000005.674146) can0 00000301#7E008813
(0000000000005.674445) can0 18FFD1F7#0B0F0B1C0B110000
(0000000000005.674701) can0 18FFD0F7#0097009700970000
(0000000000005.675042) can0 18FFC9F7#125C025800000000
(0000000000005.675298) can0 1CFFC6F7#FA31000000300026
(0000000000005.675554) can0 1CFFC7F7#0320032000AD0000
(0000000000005.675853) can0 0CFFC2F7#1356009702580000
(0000000000005.676151) can0 0CFFC8F7#0000000001000000
(0000000000005.676407) can0 18FFCCF7#01630165016A0000
(0000000000005.676706) can0 18FFCBF7#010500F604610000
(0000000000005.677004) can0 1CFFC5F7#01F5014A095605DF
(0000000000005.677260) can0 0CFFC3F7#1255411540D40041
(0000000000005.677559) can0 18FFC4F7#0000009600000000
(0000000000005.677858) can0 0CFFCAF7#0001F20A00000008
(0000000000005.683148) can0 00000601#2305180181020080
(0000000000005.693242) can0 00FFAB41#0100000001000001
(0000000000005.693272) can0 00000601#2305180181020080
(0000000000005.694205) can0 0CFFAE41#125C025800000000
(0000000000005.694206) can0 0CFFAC41#0000009600000000
(0000000000005.703158) can0 00000601#2305180181020080
(0000000000005.713141) can0 00000601#2305180181020080
(0000000000005.723124) can0 00000601#2305180181020080
(0000000000005.733150) can0 00000601#2305180181020080
(0000000000005.743134) can0 00000601#2305180181020080
(0000000000005.753202) can0 00000601#2305180181020080
(0000000000005.763228) can0 00000601#2305180181020080
(0000000000005.773212) can0 00000601#2305180181020080
(0000000000005.774150) can0 00000301#7E008813
(0000000000005.774406) can0 18FFD1F7#0B100B1D0B110000
(0000000000005.774705) can0 18FFD0F7#0097009700970000
(0000000000005.775004) can0 18FFC9F7#125C025800000000
(0000000000005.775260) can0 1CFFC6F7#FA31000000300026
(0000000000005.775558) can0 1CFFC7F7#0320032000AE0000
(0000000000005.775857) can0 0CFFC2F7#1357009702580000
(0000000000005.776113) can0 0CFFC8F7#0000000001000000
(0000000000005.776412) can0 18FFCCF7#01630165016A0000
(0000000000005.776710) can0 18FFCBF7#010400F604620000
(0000000000005.776966) can0 1CFFC5F7#01F5014A095605DF
(0000000000005.777265) can0 0CFFC3F7#1255411540D40041
(0000000000005.777564) can0 18FFC4F7#0000009600000000
(0000000000005.777862) can0 0CFFCAF7#0001F20000000008
(0000000000005.783153) can0 00000601#2305180181020080
(0000000000005.793253) can0 00FFAB41#0100000001000001
(0000000000005.793283) can0 00000601#2305180181020080
(0000000000005.794225) can0 0CFFAE41#125C025800000000
(0000000000005.794227) can0 0CFFAC41#0000009600000000
(0000000000005.803119) can0 00000601#2305180181020080
(0000000000005.813145) can0 00000601#2305180181020080
(0000000000005.823129) can0 00000601#2305180181020080
(0000000000005.833155) can0 00000601#2305180181020080
(0000000000005.843138) can0 00000601#2305180181020080
(0000000000005.853207) can0 00000601#2305180181020080
(0000000000005.863190) can0 00000601#2305180181020080
(0000000000005.873216) can0 00000601#2305180181020080
(0000000000005.874155) can0 00000301#7E008813
(0000000000005.874411) can0 18FFD1F7#0B100B1D0B110000
(0000000000005.874709) can0 18FFD0F7#0097009700970000
(0000000000005.875008) can0 18FFC9F7#125C025800000000
(0000000000005.875264) can0 1CFFC6F7#FA31000000300026
(0000000000005.875563) can0 1CFFC7F7#0320032000AE0000
(0000000000005.875819) can0 0CFFC2F7#1356009702580000
(0000000000005.876117) can0 0CFFC8F7#0000000001000000
(0000000000005.876416) can0 18FFCCF7#01620165016A0000
(0000000000005.876715) can0 18FFCBF7#010400F604620000
(0000000000005.876971) can0 1CFFC5F7#01F5014A095605E0
(0000000000005.877269) can0 0CFFC3F7#1255411540D40041
(0000000000005.877568) can0 18FFC4F7#0000009600000000
(0000000000005.877824) can0 0CFFCAF7#0001F1F700000008
(0000000000005.883157) can0 00000601#2305180181020080
(0000000000005.893140) can0 00000601#2305180181020080
(0000000000005.893665) can0 00FFAB41#0100000001000001
(0000000000005.893667) can0 0CFFAE41#125C025800000000
(0000000000005.894654) can0 0CFFAC41#0000009600000000
(0000000000005.903124) can0 00000601#2305180181020080
(0000000000005.913150) can0 00000601#2305180181020080
(0000000000005.923133) can0 00000601#2305180181020080
(0000000000005.933116) can0 00000601#2305180181020080
(0000000000005.943143) can0 00000601#2305180181020080
(0000000000005.953211) can0 00000601#2305180181020080
(0000000000005.963195) can0 00000601#2305180181020080
(0000000000005.973221) can0 00000601#2305180181020080
(0000000000005.974159) can0 00000301#7E008813
(0000000000005.974458) can0 18FFD1F7#0B100B1C0B110000
(0000000000005.974714) can0 18FFD0F7#0097009700970000
(0000000000005.975013) can0 18FFC9F7#125C025800000000
(0000000000005.975269) can0 1CFFC6F7#FA2F000000300026
(0000000000005.975567) can0 1CFFC7F7#0320032000AE0000
(0000000000005.975866) can0 0CFFC2F7#1356009702580000
(0000000000005.976164) can0 0CFFC8F7#0000000001000000
(0000000000005.976420) can0 18FFCCF7#01620165016A0000
(0000000000005.976719) can0 18FFCBF7#010400F604620000
(0000000000005.976975) can0 1CFFC5F7#01F5014A095605DF
(0000000000005.977274) can0 0CFFC3F7#1255411540D40041
(0000000000005.977572) can0 18FFC4F7#0000009600000000
(0000000000005.977828) can0 0CFFCAF7#0001F1EF00000009
(0000000000005.983119) can0 00000601#2305180181020080
(0000000000005.993145) can0 00000601#2305180181020080
(0000000000005.993274) can0 00FFAB41#0100000001000001
(0000000000005.994270) can0 0CFFAE41#125C025800000000
(0000000000005.994271) can0 0CFFAC41#0000009600000000
(0000000000006.003128) can0 00000601#2305180181020080
(0000000000006.013111) can0 00000601#2305180181020080
(0000000000006.023138) can0 00000601#2305180181020080
(0000000000006.033121) can0 00000601#2305180181020080
(0000000000006.043147) can0 00000601#2305180181020080
(0000000000006.053216) can0 00000601#2305180181020080
(0000000000006.063199) can0 00000601#2305180181020080
(0000000000006.073225) can0 00000601#2305180181020080
(0000000000006.074121) can0 00000301#7E008813
(0000000000006.074420) can0 18FFD1F7#0B180B1C0B120000
(0000000000006.074718) can0 18FFD0F7#0097009700970000
(0000000000006.074974) can0 18FFC9F7#125C025800000000
(0000000000006.075273) can0 1CFFC6F7#FA31000000300026
(0000000000006.075572) can0 1CFFC7F7#0320032000AE0000
(0000000000006.075828) can0 0CFFC2F7#1356009702580000
(0000000000006.076126) can0 0CFFC8F7#0000000001000000
(0000000000006.076425) can0 18FFCCF7#01630165016A0000
(0000000000006.076681) can0 18FFCBF7#010500F604610000
(0000000000006.076979) can0 1CFFC5F7#01F5014A095605E0
(0000000000006.077278) can0 0CFFC3F7#1255411540D40041
(0000000000006.077534) can0 18FFC4F7#0000009600000000
(0000000000006.077833) can0 0CFFCAF7#0001F1F700000009
(0000000000006.083123) can0 00000601#2305180181020080
(0000000000006.093149) can0 00000601#2305180181020080
(0000000000006.094101) can0 00FFAB41#0100000001000001
(0000000000006.094103) can0 0CFFAE41#125C025800000000
(0000000000006.094103) can0 0CFFAC41#0000009600000000
(0000000000006.103133) can0 00000601#2305180181020080
(0000000000006.113116) can0 00000601#2305180181020080
(0000000000006.123142) can0 00000601#2305180181020080
(0000000000006.133125) can0 00000601#2305180181020080
(0000000000006.143109) can0 00000601#2305180181020080
(0000000000006.153220) can0 00000601#2305180181020080
(0000000000006.163203) can0 00000601#2305180181020080
(0000000000006.173187) can0 00000601#2305180181020080
(0000000000006.174125) can0 00000301#7E008813
(0000000000006.174424) can0 18FFD1F7#0B180B1C0B120000
(0000000000006.174680) can0 18FFD0F7#0097009700970000
(0000000000006.174979) can0 18FFC9F7#125C025800000000
(0000000000006.175277) can0 1CFFC6F7#FA31000000300026
(0000000000006.175533) can0 1CFFC7F7#0320032000AE0000
(0000000000006.175832) can0 0CFFC2F7#1356009702580000
(0000000000006.176131) can0 0CFFC8F7#0000000001000000
(0000000000006.176387) can0 18FFCCF7#01620165016A0000
(0000000000006.176685) can0 18FFCBF7#010400F604610000
(0000000000006.176984) can0 1CFFC5F7#01F5014A095605DF
(0000000000006.177240) can0 0CFFC3F7#1255411540D40041
(0000000000006.177539) can0 18FFC4F7#0000009600000000
(0000000000006.177837) can0 0CFFCAF7#0001F20D0000000A
(0000000000006.183128) can0 00000601#2305180181020080
(0000000000006.193111) can0 00000601#2305180181020080
(0000000000006.193429) can0 00FFAB41#0100000001000001
(0000000000006.194426) can0 0CFFAE41#125C025800000000
(0000000000006.194428) can0 0CFFAC41#0000009600000000
(0000000000006.203137) can0 00000601#2305180181020080
(0000000000006.213120) can0 00000601#2305180181020080
(0000000000006.223146) can0 00000601#2305180181020080
(0000000000006.233130) can0 00000601#2305180181020080
(0000000000006.243113) can0 00000601#2305180181020080
(0000000000006.253182) can0 00000601#2305180181020080
(0000000000006.263208) can0 00000601#2305180181020080
(0000000000006.273191) can0 00000601#2305180181020080
(0000000000006.274130) can0 00000301#7E008813
(0000000000006.274428) can0 18FFD1F7#0B170B1C0B120000
(0000000000006.274684) can0 18FFD0F7#0097009700970000
(0000000000006.274983) can0 18FFC9F7#125C025800000000
(0000000000006.275282) can0 1CFFC6F7#FA31000000300026
(0000000000006.275538) can0 1CFFC7F7#0320032000AE0000
(0000000000006.275836) can0 0CFFC2F7#1355009702580000
(0000000000006.276135) can0 0CFFC8F7#0000000001000000
(0000000000006.276391) can0 18FFCCF7#01620165016A0000
(0000000000006.276690) can0 18FFCBF7#010400F604620000
(0000000000006.276988) can0 1CFFC5F7#01F5014A095505DF
(0000000000006.277244) can0 0CFFC3F7#1255411540D40041
(0000000000006.277543) can0 18FFC4F7#0000009600000000
(0000000000006.277842) can0 0CFFCAF7#0001F2200000000B
(0000000000006.283132) can0 00000601#2305180181020080
(0000000000006.293145) can0 00000601#2305180181020080
(0000000000006.293828) can0 00FFAB41#0100000001000001
(0000000000006.293829) can0 0CFFAE41#125C025800000000
(0000000000006.293829) can0 0CFFAC41#0000009600000000
(0000000000006.303171) can0 00000601#2305180181020080
(0000000000006.313155) can0 00000601#2305180181020080
(0000000000006.323138) can0 00000601#2305180181020080
(0000000000006.333164) can0 00000601#2305180181020080
(0000000000006.343148) can0 00000601#2305180181020080
(0000000000006.353216) can0 00000601#2305180181020080
(0000000000006.363242) can0 00000601#2305180181020080
(0000000000006.373226) can0 00000601#2305180181020080
(0000000000006.374164) can0 00000301#7E008813
(0000000000006.374463) can0 18FFD1F7#0B170B1C0B120000
(0000000000006.374719) can0 18FFD0F7#0097009700970000
(0000000000006.375018) can0 18FFC9F7#125C025800000000
(0000000000006.375274) can0 1CFFC6F7#FA2F000000300026
(0000000000006.375572) can0 1CFFC7F7#0320032000AD0000
(0000000000006.375871) can0 0CFFC2F7#1355009702580000
(0000000000006.376127) can0 0CFFC8F7#0000000001000000
(0000000000006.376425) can0 18FFCCF7#01640166016A0000
(0000000000006.376767) can0 18FFCBF7#010400F604610000
(0000000000006.376980) can0 1CFFC5F7#01F5014A095605E0
(0000000000006.377279) can0 0CFFC3F7#1255411540D40041
(0000000000006.377577) can0 18FFC4F7#0000009600000000
(0000000000006.377876) can0 0CFFCAF7#0001F2280000000A
(0000000000006.383166) can0 00000601#2305180181020080
(0000000000006.393102) can0 00FFAB41#0100000001000001
(0000000000006.393150) can0 00000601#2305180181020080
(0000000000006.394079) can0 0CFFAE41#125C025800000000
(0000000000006.394081) can0 0CFFAC41#0000009600000000
(0000000000006.403133) can0 00000601#2305180181020080
(0000000000006.413159) can0 00000601#2305180181020080
(0000000000006.423143) can0 00000601#2305180181020080
(0000000000006.433169) can0 00000601#2305180181020080
(0000000000006.443152) can0 00000601#2305180181020080
(0000000000006.453221) can0 00000601#2305180181020080
(0000000000006.463204) can0 00000601#2305180181020080
(0000000000006.473230) can0 00000601#2305180181020080
(0000000000006.474169) can0 00000301#7E008813
(0000000000006.474425) can0 18FFD1F7#0B180B1C0B120000
(0000000000006.474766) can0 18FFD0F7#0097009700970000
(0000000000006.475022) can0 18FFC9F7#125C025800000000
(0000000000006.475278) can0 1CFFC6F7#FA2F0000002F0026
(0000000000006.475577) can0 1CFFC7F7#0320032000AD0000
(0000000000006.475833) can0 0CFFC2F7#1354009702580000
(0000000000006.476131) can0 0CFFC8F7#0000000001000000
(0000000000006.476430) can0 18FFCCF7#01640166016A0000
(0000000000006.476729) can0 18FFCBF7#010400F604620000
(0000000000006.476984) can0 1CFFC5F7#01F5014A095505DF
(0000000000006.477283) can0 0CFFC3F7#1255411540D40041
(0000000000006.477582) can0 18FFC4F7#0000009600000000
(0000000000006.477838) can0 0CFFCAF7#0001F2310000000A
(0000000000006.483171) can0 00000601#2305180181020080
(0000000000006.493187) can0 00FFAB41#0100000001000001
(0000000000006.493217) can0 00000601#2305180181020080
(0000000000006.494170) can0 0CFFAE41#125C025800000000
(0000000000006.494171) can0 0CFFAC41#0000009600000000
(0000000000006.503138) can0 00000601#2305180181020080
(0000000000006.513164) can0 00000601#2305180181020080
(0000000000006.523147) can0 00000601#2305180181020080
(0000000000006.533130) can0 00000601#2305180181020080
(0000000000006.543156) can0 00000601#2305180181020080
(0000000000006.553225) can0 00000601#2305180181020080
(0000000000006.563208) can0 00000601#2305180181020080
(0000000000006.573234) can0 00000601#2305180181020080
(0000000000006.574130) can0 00000301#7E008813
(0000000000006.574429) can0 18FFD1F7#0B180B1B0B120000
(0000000000006.574728) can0 18FFD0F7#0097009700970000
(0000000000006.574984) can0 18FFC9F7#125C025800000000
(0000000000006.575282) can0 1CFFC6F7#FA2F000000300026
(0000000000006.575581) can0 1CFFC7F7#0320032000AE0000
(0000000000006.575837) can0 0CFFC2F7#1355009702580000
(0000000000006.576136) can0 0CFFC8F7#0000000001000000
(0000000000006.576434) can0 18FFCCF7#01630165016A0000
(0000000000006.576733) can0 18FFCBF7#010400F604620000
(0000000000006.576989) can0 1CFFC5F7#01F5014A095605DF
(0000000000006.577288) can0 0CFFC3F7#1255411540D40041
(0000000000006.577544) can0 18FFC4F7#0000009600000000
(0000000000006.577842) can0 0CFFCAF7#0001F2390000000B
(0000000000006.583133) can0 00000601#2305180181020080
(0000000000006.593249) can0 00FFAB41#0100000001000001
(0000000000006.593279) can0 00000601#2305180181020080
(0000000000006.594243) can0 0CFFAE41#125C025800000000
(0000000000006.594244) can0 0CFFAC41#0000009600000000
(0000000000006.603142) can0 00000601#2305180181020080
(0000000000006.613125) can0 00000601#2305180181020080
(0000000000006.623151) can0 00000601#2305180181020080
(0000000000006.633135) can0 00000601#2305180181020080
(0000000000006.643161) can0 00000601#2305180181020080
(0000000000006.653229) can0 00000601#2305180181020080
(0000000000006.663213) can0 00000601#2305180181020080
(0000000000006.673196) can0 00000601#2305180181020080
(0000000000006.674135) can0 00000301#7E008813
(0000000000006.674433) can0 18FFD1F7#0B180B1C0B120000
(0000000000006.674732) can0 18FFD0F7#0097009700970000
(0000000000006.675031) can0 18FFC9F7#125C025800000000
(0000000000006.675287) can0 1CFFC6F7#FA310000002F0026
(0000000000006.675543) can0 1CFFC7F7#0320032000AD0000
(0000000000006.675841) can0 0CFFC2F7#1354009702580000
(0000000000006.676140) can0 0CFFC8F7#0000000001000000
(0000000000006.676439) can0 18FFCCF7#01630165016A0000
(0000000000006.676737) can0 18FFCBF7#010400F704620000
(0000000000006.676993) can0 1CFFC5F7#01F5014A095605DF
(0000000000006.677292) can0 0CFFC3F7#1255411540D40041
(0000000000006.677548) can0 18FFC4F7#0000009600000000
(0000000000006.677847) can0 0CFFCAF7#0001F2420000000A
(0000000000006.683137) can0 00000601#2305180181020080
(0000000000006.693163) can0 00000601#2305180181020080
(0000000000006.693908) can0 00FFAB41#0100000001000001
(0000000000006.693909) can0 0CFFAE41#125C025800000000
(0000000000006.693910) can0 0CFFAC41#0000009600000000
(0000000000006.703146) can0 00000601#2305180181020080
(0000000000006.713130) can0 00000601#2305180181020080
(0000000000006.723156) can0 00000601#2305180181020080
(0000000000006.733139) can0 00000601#2305180181020080
(0000000000006.743123) can0 00000601#2305180181020080
(0000000000006.753191) can0 00000601#2305180181020080
(0000000000006.763217) can0 00000601#2305180181020080
(0000000000006.773201) can0 00000601#2305180181020080
(0000000000006.774139) can0 00000301#7E008813
(0000000000006.774438) can0 18FFD1F7#0B180B1C0B120000
(0000000000006.774737) can0 18FFD0F7#0097009700970000
(0000000000006.774993) can0 18FFC9F7#125C025800000000
(0000000000006.775291) can0 1CFFC6F7#FA320000002F0026
(0000000000006.775547) can0 1CFFC7F7#0320032000AD0000
(0000000000006.775846) can0 0CFFC2F7#1353009702580000
(0000000000006.776144) can0 0CFFC8F7#0000000001000000
(0000000000006.776400) can0 18FFCCF7#01630166016A0000
(0000000000006.776699) can0 18FFCBF7#010400F604620000
(0000000000006.776998) can0 1CFFC5F7#01F5014A095605E0
(0000000000006.777254) can0 0CFFC3F7#1255411540D40041
(0000000000006.777552) can0 18FFC4F7#0000009600000000
(0000000000006.777851) can0 0CFFCAF7#0001F24800000009
(0000000000006.783141) can0 00000601#2305180181020080
(0000000000006.793125) can0 00000601#2305180181020080
(0000000000006.793565) can0 00FFAB41#0100000001000001
(0000000000006.793567) can0 0CFFAE41#125C025800000000
(0000000000006.794561) can0 0CFFAC41#0000009600000000
(0000000000006.803151) can0 00000601#2305180181020080
(0000000000006.813134) can0 00000601#2305180181020080
(0000000000006.823118) can0 00000601#2305180181020080
(0000000000006.833144) can0 00000601#2305180181020080
(0000000000006.843127) can0 00000601#2305180181020080
(0000000000006.853196) can0 00000601#2305180181020080
(0000000000006.863222) can0 00000601#2305180181020080
(0000000000006.873205) can0 00000601#2305180181020080
(0000000000006.874144) can0 00000301#7E008813
(0000000000006.874400) can0 18FFD1F7#0B190B1C0B130000
(0000000000006.874741) can0 18FFD0F7#0097009700970000
(0000000000006.874997) can0 18FFC9F7#125C025800000000
(0000000000006.875253) can0 1CFFC6F7#FA2F0000002F0026
(0000000000006.875552) can0 1CFFC7F7#0320032000AD0000
(0000000000006.875850) can0 0CFFC2F7#1354009602580000
(0000000000006.876106) can0 0CFFC8F7#0000000001000000
(0000000000006.876405) can0 18FFCCF7#01630165016A0000
(0000000000006.876746) can0 18FFCBF7#010400F604610000
(0000000000006.877002) can0 1CFFC5F7#01F5014A095605E0
(0000000000006.877258) can0 0CFFC3F7#1255411540D40041
(0000000000006.877557) can0 18FFC4F7#0000009600000000
(0000000000006.877855) can0 0CFFCAF7#0001F25000000007
(0000000000006.883146) can0 00000601#2305180181020080
(0000000000006.893129) can0 00000601#2305180181020080
(0000000000006.893875) can0 00FFAB41#0100000001000001
(0000000000006.893876) can0 0CFFAE41#125C025800000000
