(1475151975.832373) can0 00FFAB41#0000000000000001
(1475151975.836554) can0 0CFFAC41#0000000000000000
(1475151975.841089) can0 0CFFAE41#0820025800000000
(1475151975.861895) can0 1CFFC0F7#0000000002580000
(1475151975.862162) can0 18FFD1F7#04B104B104B10000
(1475151975.862427) can0 18FFD0F7#0000000000000000
(1475151975.862769) can0 18FFC9F7#0820025800000000
(1475151975.863000) can0 1CFFC6F7#FA430000001B001C
(1475151975.863317) can0 1CFFC7F7#018F019000000000
(1475151975.863613) can0 0CFFC2F7#0820000002580000
(1475151975.863882) can0 0CFFC8F7#00000000010F000F
(1475151975.864151) can0 18FFCBF7#0104FCA600000000
(1475151975.864449) can0 1CFFC5F7#01F3014B099D05DC
(1475151975.864757) can0 0CFFC3F7#0115401550504001
(1475151975.864995) can0 18FFC4F7#0000000000000000
(1475151975.865389) can0 0CFFCAF7#0000000000000000
(1475151975.932137) can0 00FFAB41#0000000000000001
(1475151975.936392) can0 0CFFAC41#0000000000000000
(1475151975.940976) can0 0CFFAE41#0820025800000000
(1475151975.961843) can0 1CFFC0F7#0000000002580000
(1475151975.962156) can0 18FFD1F7#04B104B104B10000
(1475151975.962426) can0 18FFD0F7#0000000000000000
(1475151975.962744) can0 18FFC9F7#0820025800000000
(1475151975.962991) can0 1CFFC6F7#FA420000001B001C
(1475151975.963298) can0 1CFFC7F7#018F019000000000
(1475151975.963598) can0 0CFFC2F7#0820000002580000
(1475151975.963872) can0 0CFFC8F7#00000000010F000F
(1475151975.964176) can0 18FFCBF7#0104FCA600000000
(1475151975.964448) can0 1CFFC5F7#01F3014B099D05DC
(1475151975.964782) can0 0CFFC3F7#0115401550504001
(1475151975.965009) can0 18FFC4F7#0000000000000000
(1475151975.965319) can0 0CFFCAF7#0000000000000000
(1475151976.032133) can0 00FFAB41#0000000000000001
(1475151976.036278) can0 0CFFAC41#0000000000000000
(1475151976.040569) can0 0CFFAE41#0820025800000000
(1475151976.061968) can0 1CFFC0F7#0000000002580000
(1475151976.062164) can0 18FFD1F7#04B104B104B10000
(1475151976.062485) can0 18FFD0F7#0000000000000000
(1475151976.062811) can0 18FFC9F7#0820025800000000
(1475151976.063108) can0 1CFFC6F7#FA400000001B001C
(1475151976.063368) can0 1CFFC7F7#018F019000000000
(1475151976.063651) can0 0CFFC2F7#0820000002580000
(1475151976.063922) can0 0CFFC8F7#00000000010F000F
(1475151976.064233) can0 18FFCBF7#0104FCA600000000
(1475151976.064506) can0 1CFFC5F7#01F3014B099D05DD
(1475151976.064786) can0 0CFFC3F7#0115401550504001
(1475151976.065115) can0 18FFC4F7#0000000000000000
(1475151976.065371) can0 0CFFCAF7#0000000000000000
(1475151976.136353) can0 00FFAB41#0000000000000001
(1475151976.140411) can0 0CFFAC41#0000000000000000
(1475151976.144637) can0 0CFFAE41#0820025800000000
(1475151976.161832) can0 1CFFC0F7#0000000002580000
(1475151976.162124) can0 18FFD1F7#04B104B104B10000
(1475151976.162434) can0 18FFD0F7#0000000000000000
(1475151976.162679) can0 18FFC9F7#0820025800000000
(1475151976.162998) can0 1CFFC6F7#FA420000001B001C
(1475151976.163297) can0 1CFFC7F7#018F019000000000
(1475151976.163617) can0 0CFFC2F7#0820000002580000
(1475151976.163940) can0 0CFFC8F7#00000000010F000F
(1475151976.164140) can0 18FFCBF7#0104FCA600000000
(1475151976.164497) can0 1CFFC5F7#01F3014B099D05DB
(1475151976.164706) can0 0CFFC3F7#0115401550504001
(1475151976.165004) can0 18FFC4F7#0000000000000000
(1475151976.165335) can0 0CFFCAF7#0000000000000000
(1475151976.232544) can0 00FFAB41#0000000000000001
(1475151976.236691) can0 0CFFAC41#0000000000000000
(1475151976.240941) can0 0CFFAE41#0820025800000000
(1475151976.261879) can0 1CFFC0F7#0000000002580000
(1475151976.262185) can0 18FFD1F7#04B104B104B10000
(1475151976.262468) can0 18FFD0F7#0000000000000000
(1475151976.262819) can0 18FFC9F7#0820025800000000
(1475151976.263068) can0 1CFFC6F7#FA400000001B001C
(1475151976.263349) can0 1CFFC7F7#018F019000000000
(1475151976.263671) can0 0CFFC2F7#0820000002580000
(1475151976.263933) can0 0CFFC8F7#00000000010F000F
(1475151976.264240) can0 18FFCBF7#0104FCA600000000
(1475151976.264532) can0 1CFFC5F7#01F3014B099E05DE
(1475151976.264821) can0 0CFFC3F7#0115401550504001
(1475151976.265103) can0 18FFC4F7#0000000000000000
(1475151976.265397) can0 0CFFCAF7#0000000000000000
(1475151976.332429) can0 00FFAB41#0000000000000001
(1475151976.341620) can0 0CFFAC41#0000000000000000
(1475151976.351679) can0 0CFFAE41#0820025800000000
(1475151976.361934) can0 1CFFC0F7#0000000002580000
(1475151976.362192) can0 18FFD1F7#04B104B104B10000
(1475151976.362564) can0 18FFD0F7#0000000000000000
(1475151976.362808) can0 18FFC9F7#0820025800000000
(1475151976.363113) can0 1CFFC6F7#FA400000001B001C
(1475151976.363407) can0 1CFFC7F7#018F019000000000
(1475151976.363660) can0 0CFFC2F7#0820000002580000
(1475151976.363940) can0 0CFFC8F7#00000000010F000F
(1475151976.364230) can0 18FFCBF7#0104FCA600000000
(1475151976.364513) can0 1CFFC5F7#01F3014B099D05DD
(1475151976.364881) can0 0CFFC3F7#0115401550504001
(1475151976.365108) can0 18FFC4F7#0000000000000000
(1475151976.365420) can0 0CFFCAF7#0000000000000000
(1475151976.432460) can0 00FFAB41#0000000000000001
(1475151976.436710) can0 0CFFAC41#0000000000000000
(1475151976.440938) can0 0CFFAE41#0820025800000000
(1475151976.461858) can0 1CFFC0F7#0000000002580000
(1475151976.462160) can0 18FFD1F7#04B104B104B10000
(1475151976.462456) can0 18FFD0F7#0000000000000000
(1475151976.462769) can0 18FFC9F7#0820025800000000
(1475151976.463030) can0 1CFFC6F7#FA430000001B001B
(1475151976.463366) can0 1CFFC7F7#018F019000000000
(1475151976.463585) can0 0CFFC2F7#0820000002580000
(1475151976.463919) can0 0CFFC8F7#00000000010F000F
(1475151976.464226) can0 18FFCBF7#0104FCA600000000
(1475151976.464475) can0 1CFFC5F7#01F3014B099D05DB
(1475151976.464797) can0 0CFFC3F7#0115401550504001
(1475151976.465079) can0 18FFC4F7#0000000000000000
(1475151976.465352) can0 0CFFCAF7#0000000000000000
(1475151976.532343) can0 00FFAB41#0000000000000001
(1475151976.536511) can0 0CFFAC41#0000000000000000
(1475151976.540693) can0 0CFFAE41#0820025800000000
(1475151976.561859) can0 1CFFC0F7#0000000002580000
(1475151976.562148) can0 18FFD1F7#04B104B104B10000
(1475151976.562439) can0 18FFD0F7#0000000000000000
(1475151976.562759) can0 18FFC9F7#0820025800000000
(1475151976.563010) can0 1CFFC6F7#FA400000001B001B
(1475151976.563327) can0 1CFFC7F7#018F019000000000
(1475151976.563584) can0 0CFFC2F7#0820000002580000
(1475151976.563906) can0 0CFFC8F7#00000000010F000F
(1475151976.564200) can0 18FFCBF7#0104FCA600000000
(1475151976.564450) can0 1CFFC5F7#01F3014B099D05DB
(1475151976.564771) can0 0CFFC3F7#0115401550504001
(1475151976.565053) can0 18FFC4F7#0000000000000000
(1475151976.565337) can0 0CFFCAF7#0000000000000000
(1475151976.636390) can0 00FFAB41#0000000000000001
(1475151976.640443) can0 0CFFAC41#0000000000000000
(1475151976.644658) can0 0CFFAE41#0820025800000000
(1475151976.661934) can0 1CFFC0F7#0000000002580000
(1475151976.662183) can0 18FFD1F7#04B104B104B10000
(1475151976.662558) can0 18FFD0F7#0000000000000000
(1475151976.662821) can0 18FFC9F7#0820025800000000
(1475151976.663096) can0 1CFFC6F7#FA3D0000001B001B
(1475151976.663365) can0 1CFFC7F7#018F019000000000
(1475151976.663666) can0 0CFFC2F7#0820000002580000
(1475151976.663939) can0 0CFFC8F7#00000000010F000F
(1475151976.664214) can0 18FFCBF7#0104FCA600000000
(1475151976.664494) can0 1CFFC5F7#01F3014B099D05DE
(1475151976.664801) can0 0CFFC3F7#0115401550504001
(1475151976.665095) can0 18FFC4F7#0000000000000000
(1475151976.665372) can0 0CFFCAF7#0000000000000000
(1475151976.732121) can0 00FFAB41#0000000000000001
(1475151976.736340) can0 0CFFAC41#0000000000000000
(1475151976.740592) can0 0CFFAE41#0820025800000000
(1475151976.761895) can0 1CFFC0F7#0000000002580000
(1475151976.762148) can0 18FFD1F7#04B104B104B10000
(1475151976.762506) can0 18FFD0F7#0000000000000000
(1475151976.762801) can0 18FFC9F7#0820025800000000
(1475151976.763079) can0 1CFFC6F7#FA420000001B001B
(1475151976.763355) can0 1CFFC7F7#018F019000000000
(1475151976.763601) can0 0CFFC2F7#0820000002580000
(1475151976.763927) can0 0CFFC8F7#00000000010F000F
(1475151976.764213) can0 18FFCBF7#0104FCA600000000
(1475151976.764509) can0 1CFFC5F7#01F3014B099E05DB
(1475151976.764800) can0 0CFFC3F7#0115401550504001
(1475151976.765124) can0 18FFC4F7#0000000000000000
(1475151976.765388) can0 0CFFCAF7#0000000000000000
(1475151976.833206) can0 00FFAB41#0000000000000001
(1475151976.837455) can0 0CFFAC41#0000000000000000
(1475151976.841690) can0 0CFFAE41#0820025800000000
(1475151976.861956) can0 1CFFC0F7#0000000002580000
(1475151976.862231) can0 18FFD1F7#04B104B104B10000
(1475151976.862523) can0 18FFD0F7#0000000000000000
(1475151976.862855) can0 18FFC9F7#0820025800000000
(1475151976.863079) can0 1CFFC6F7#FA3F0000001B001B
(1475151976.863306) can0 1CFFC7F7#018F019000000000
(1475151976.863633) can0 0CFFC2F7#0820000002580000
(1475151976.863930) can0 0CFFC8F7#00000000010F000F
(1475151976.864234) can0 18FFCBF7#0104FCA600000000
(1475151976.864523) can0 1CFFC5F7#01F3014B099C05DC
(1475151976.864813) can0 0CFFC3F7#0115401550504001
(1475151976.865109) can0 18FFC4F7#0000000000000000
(1475151976.865374) can0 0CFFCAF7#0000000000000000
(1475151976.933195) can0 00FFAB41#0000000000000001
(1475151976.937495) can0 0CFFAC41#0000000000000000
(1475151976.941673) can0 0CFFAE41#0820025800000000
(1475151976.961883) can0 1CFFC0F7#0000000002580000
(1475151976.962175) can0 18FFD1F7#04B104B104B10000
(1475151976.962461) can0 18FFD0F7#0000000000000000
(1475151976.962785) can0 18FFC9F7#0820025800000000
(1475151976.963080) can0 1CFFC6F7#FA3D0000001B001B
(1475151976.963366) can0 1CFFC7F7#018F019000000000
(1475151976.963677) can0 0CFFC2F7#0820000002580000
(1475151976.963960) can0 0CFFC8F7#00000000010F000F
(1475151976.964204) can0 18FFCBF7#0104FCA600000000
(1475151976.964498) can0 1CFFC5F7#01F3014B099E05DC
(1475151976.964775) can0 0CFFC3F7#0115401550504001
(1475151976.965058) can0 18FFC4F7#0000000000000000
(1475151976.965331) can0 0CFFCAF7#0000000000000000
(1475151977.032194) can0 00FFAB41#0000000000000001
(1475151977.036626) can0 0CFFAC41#0000000000000000
(1475151977.040873) can0 0CFFAE41#0820025800000000
(1475151977.061932) can0 1CFFC0F7#0000000002580000
(1475151977.062142) can0 18FFD1F7#04B104B104B10000
(1475151977.062503) can0 18FFD0F7#0000000000000000
(1475151977.062785) can0 18FFC9F7#0820025800000000
(1475151977.063041) can0 1CFFC6F7#FA420000001B001B
(1475151977.063328) can0 1CFFC7F7#018F019000000000
(1475151977.063638) can0 0CFFC2F7#0820000002580000
(1475151977.063921) can0 0CFFC8F7#00000000010F000F
(1475151977.064216) can0 18FFCBF7#0104FCA600000000
(1475151977.064478) can0 1CFFC5F7#01F3014B099D05DD
(1475151977.064800) can0 0CFFC3F7#0115401550504001
(1475151977.065117) can0 18FFC4F7#0000000000000000
(1475151977.065386) can0 0CFFCAF7#0000000000000000
(1475151977.136636) can0 00FFAB41#0000000000000001
(1475151977.140659) can0 0CFFAC41#0000000000000000
(1475151977.145028) can0 0CFFAE41#0820025800000000
(1475151977.161854) can0 1CFFC0F7#0000000002580000
(1475151977.162172) can0 18FFD1F7#04B104B104B10000
(1475151977.162461) can0 18FFD0F7#0000000000000000
(1475151977.162779) can0 18FFC9F7#0820025800000000
(1475151977.163061) can0 1CFFC6F7#FA420000001B001B
(1475151977.163341) can0 1CFFC7F7#018F019000000000
(1475151977.163575) can0 0CFFC2F7#0820000002580000
(1475151977.163924) can0 0CFFC8F7#00000000010F000F
(1475151977.164218) can0 18FFCBF7#0104FCA600000000
(1475151977.164468) can0 1CFFC5F7#01F3014B099D05DE
(1475151977.164777) can0 0CFFC3F7#0115401550504001
(1475151977.165058) can0 18FFC4F7#0000000000000000
(1475151977.165342) can0 0CFFCAF7#0000000000000000
(1475151977.232451) can0 00FFAB41#0000000000000001
(1475151977.236618) can0 0CFFAC41#0000000000000000
(1475151977.241177) can0 0CFFAE41#0820025800000000
(1475151977.261838) can0 1CFFC0F7#0000000002580000
(1475151977.262158) can0 18FFD1F7#04B104B104B10000
(1475151977.262442) can0 18FFD0F7#0000000000000000
(1475151977.262764) can0 18FFC9F7#0820025800000000
(1475151977.263045) can0 1CFFC6F7#FA420000001A001B
(1475151977.263284) can0 1CFFC7F7#018F019000000000
(1475151977.263567) can0 0CFFC2F7#0820000002580000
(1475151977.263897) can0 0CFFC8F7#00000000010F000F
(1475151977.264192) can0 18FFCBF7#0104FCA600000000
(1475151977.264442) can0 1CFFC5F7#01F3014B099D05DE
(1475151977.264795) can0 0CFFC3F7#0115401550504001
(1475151977.265094) can0 18FFC4F7#0000000000000000
(1475151977.265376) can0 0CFFCAF7#0000000000000000
(1475151977.332269) can0 00FFAB41#0000000000000001
(1475151977.336411) can0 0CFFAC41#0000000000000000
(1475151977.340994) can0 0CFFAE41#0820025800000000
(1475151977.361854) can0 1CFFC0F7#0000000002580000
(1475151977.362169) can0 18FFD1F7#04B104B104B10000
(1475151977.362453) can0 18FFD0F7#0000000000000000
(1475151977.362772) can0 18FFC9F7#0820025800000000
(1475151977.363044) can0 1CFFC6F7#FA400000001A001B
(1475151977.363281) can0 1CFFC7F7#018F019000000000
(1475151977.363609) can0 0CFFC2F7#0820000002580000
(1475151977.363874) can0 0CFFC8F7#00000000010F000F
(1475151977.364169) can0 18FFCBF7#0104FCA600000000
(1475151977.364431) can0 1CFFC5F7#01F3014B099E05DD
(1475151977.364760) can0 0CFFC3F7#0115401550504001
(1475151977.365026) can0 18FFC4F7#0000000000000000
(1475151977.365315) can0 0CFFCAF7#0000000000000000
(1475151977.432710) can0 00FFAB41#0000000000000001
(1475151977.436954) can0 0CFFAC41#0000000000000000
(1475151977.441176) can0 0CFFAE41#0820025800000000
(1475151977.461852) can0 1CFFC0F7#0000000002580000
(1475151977.462141) can0 18FFD1F7#04B104B104B10000
(1475151977.462471) can0 18FFD0F7#0000000000000000
(1475151977.462783) can0 18FFC9F7#0820025800000000
(1475151977.463058) can0 1CFFC6F7#FA3D0000001A001B
(1475151977.463340) can0 1CFFC7F7#018F019000000000
(1475151977.463626) can0 0CFFC2F7#0820000002580000
(1475151977.463874) can0 0CFFC8F7#00000000010F000F
(1475151977.464169) can0 18FFCBF7#0104FCA600000000
(1475151977.464463) can0 1CFFC5F7#01F3014B099E05DE
(1475151977.464749) can0 0CFFC3F7#0115401550504001
(1475151977.465066) can0 18FFC4F7#0000000000000000
(1475151977.465343) can0 0CFFCAF7#0000000000000000
(1475151977.532298) can0 00FFAB41#0000000000000001
(1475151977.536491) can0 0CFFAC41#0000000000000000
(1475151977.540639) can0 0CFFAE41#0820025800000000
(1475151977.561921) can0 1CFFC0F7#0000000002580000
(1475151977.562171) can0 18FFD1F7#04B104B104B10000
(1475151977.562552) can0 18FFD0F7#0000000000000000
(1475151977.562812) can0 18FFC9F7#0820025800000000
(1475151977.563058) can0 1CFFC6F7#FA400000001A001B
(1475151977.563338) can0 1CFFC7F7#018F019000000000
(1475151977.563630) can0 0CFFC2F7#0820000002580000
(1475151977.563894) can0 0CFFC8F7#00000000010F000F
(1475151977.564193) can0 18FFCBF7#0104FCA600000000
(1475151977.564488) can0 1CFFC5F7#01F3014B099D05DE
(1475151977.564779) can0 0CFFC3F7#0115401550504001
(1475151977.565077) can0 18FFC4F7#0000000000000000
(1475151977.565321) can0 0CFFCAF7#0000000000000000
(1475151977.636522) can0 00FFAB41#0000000000000001
(1475151977.640550) can0 0CFFAC41#0000000000000000
(1475151977.644728) can0 0CFFAE41#0820025800000000
(1475151977.661859) can0 1CFFC0F7#0000000002580000
(1475151977.662197) can0 18FFD1F7#04B104B104B10000
(1475151977.662549) can0 18FFD0F7#0000000000000000
(1475151977.662778) can0 18FFC9F7#0820025800000000
(1475151977.663072) can0 1CFFC6F7#FA400000001A001B
(1475151977.663317) can0 1CFFC7F7#018F019000000000
(1475151977.663633) can0 0CFFC2F7#0820000002580000
(1475151977.663915) can0 0CFFC8F7#00000000010F000F
(1475151977.664187) can0 18FFCBF7#0104FCA600000000
(1475151977.664487) can0 1CFFC5F7#01F3014B099D05DD
(1475151977.664794) can0 0CFFC3F7#0115401550504001
(1475151977.665084) can0 18FFC4F7#0000000000000000
(1475151977.665361) can0 0CFFCAF7#0000000000000000
(1475151977.732543) can0 00FFAB41#0000000000000001
(1475151977.736699) can0 0CFFAC41#0000000000000000
(1475151977.740901) can0 0CFFAE41#0820025800000000
(1475151977.761870) can0 1CFFC0F7#0000000002580000
(1475151977.762160) can0 18FFD1F7#04B104B104B10000
(1475151977.762495) can0 18FFD0F7#0000000000000000
(1475151977.762799) can0 18FFC9F7#0820025800000000
(1475151977.763047) can0 1CFFC6F7#FA430000001A001B
(1475151977.763293) can0 1CFFC7F7#018F019000000000
(1475151977.763613) can0 0CFFC2F7#0820000002580000
(1475151977.763915) can0 0CFFC8F7#00000000010F000F
(1475151977.764187) can0 18FFCBF7#0104FCA600000000
(1475151977.764463) can0 1CFFC5F7#01F3014B099C05DD
(1475151977.764799) can0 0CFFC3F7#0115401550504001
(1475151977.765074) can0 18FFC4F7#0000000000000000
(1475151977.765358) can0 0CFFCAF7#0000000000000000
(1475151977.832323) can0 00FFAB41#0000000000000001
(1475151977.836559) can0 0CFFAC41#0000000000000000
(1475151977.840784) can0 0CFFAE41#0820025800000000
(1475151977.861852) can0 1CFFC0F7#0000000002580000
(1475151977.862139) can0 18FFD1F7#04B104B104B10000
(1475151977.862431) can0 18FFD0F7#0000000000000000
(1475151977.862772) can0 18FFC9F7#0820025800000000
(1475151977.863066) can0 1CFFC6F7#FA420000001A001B
(1475151977.863324) can0 1CFFC7F7#018F019000000000
(1475151977.863563) can0 0CFFC2F7#0820000002580000
(1475151977.863906) can0 0CFFC8F7#00000000010F000F
(1475151977.864234) can0 18FFCBF7#0104FCA600000000
(1475151977.864574) can0 1CFFC5F7#01F3014B099E05DC
(1475151977.864918) can0 0CFFC3F7#0115401550504001
(1475151977.865226) can0 18FFC4F7#0000000000000000
(1475151977.865472) can0 0CFFCAF7#0000000000000000
(1475151977.932320) can0 00FFAB41#0000000000000001
(1475151977.936607) can0 0CFFAC41#0000000000000000
(1475151977.940812) can0 0CFFAE41#0820025800000000
(1475151977.961855) can0 1CFFC0F7#0000000002580000
(1475151977.962208) can0 18FFD1F7#04B104B104B10000
(1475151977.962452) can0 18FFD0F7#0000000000000000
(1475151977.962761) can0 18FFC9F7#0820025800000000
(1475151977.963010) can0 1CFFC6F7#FA450000001A001B
(1475151977.963359) can0 1CFFC7F7#018F019000000000
(1475151977.963613) can0 0CFFC2F7#0820000002580000
(1475151977.963943) can0 0CFFC8F7#00000000010F000F
(1475151977.964236) can0 18FFCBF7#0104FCA600000000
(1475151977.964598) can0 1CFFC5F7#01F3014B099D05DB
(1475151977.964900) can0 0CFFC3F7#0115401550504001
(1475151977.965209) can0 18FFC4F7#0000000000000000
(1475151977.965468) can0 0CFFCAF7#0000000000000000
(1475151978.032251) can0 00FFAB41#0000000000000001
(1475151978.036318) can0 0CFFAC41#0000000000000000
(1475151978.040529) can0 0CFFAE41#0820025800000000
(1475151978.061951) can0 1CFFC0F7#0000000002580000
(1475151978.062180) can0 18FFD1F7#04B104B104B10000
(1475151978.062526) can0 18FFD0F7#0000000000000000
(1475151978.062821) can0 18FFC9F7#0820025800000000
(1475151978.063084) can0 1CFFC6F7#FA420000001A001A
(1475151978.063311) can0 1CFFC7F7#018F019000000000
(1475151978.063596) can0 0CFFC2F7#0820000002580000
(1475151978.063934) can0 0CFFC8F7#00000000010F000F
(1475151978.064184) can0 18FFCBF7#0104FCA600000000
(1475151978.064479) can0 1CFFC5F7#01F3014B099D05DD
(1475151978.064757) can0 0CFFC3F7#0115401550504001
(1475151978.065039) can0 18FFC4F7#0000000000000000
(1475151978.065356) can0 0CFFCAF7#0000000000000000
(1475151978.136952) can0 00FFAB41#0000000000000001
(1475151978.141103) can0 0CFFAC41#0000000000000000
(1475151978.145342) can0 0CFFAE41#0820025800000000
(1475151978.161902) can0 1CFFC0F7#0000000002580000
(1475151978.162246) can0 18FFD1F7#04B104B104B10000
(1475151978.162494) can0 18FFD0F7#0000000000000000
(1475151978.162778) can0 18FFC9F7#0820025800000000
(1475151978.163046) can0 1CFFC6F7#FA3F0000001A001A
(1475151978.163331) can0 1CFFC7F7#018F019000000000
(1475151978.163611) can0 0CFFC2F7#0820000002580000
(1475151978.163887) can0 0CFFC8F7#00000000010F000F
(1475151978.164213) can0 18FFCBF7#0104FCA600000000
(1475151978.164504) can0 1CFFC5F7#01F3014C099C05DE
(1475151978.164774) can0 0CFFC3F7#0115401550504001
(1475151978.165070) can0 18FFC4F7#0000000000000000
(1475151978.165320) can0 0CFFCAF7#0000000000000000
(1475151978.232434) can0 00FFAB41#0000000000000001
(1475151978.236595) can0 0CFFAC41#0000000000000000
(1475151978.240823) can0 0CFFAE41#0820025800000000
(1475151978.261880) can0 1CFFC0F7#0000000002580000
(1475151978.262175) can0 18FFD1F7#04B104B104B10000
(1475151978.262489) can0 18FFD0F7#0000000000000000
(1475151978.262761) can0 18FFC9F7#0820025800000000
(1475151978.263011) can0 1CFFC6F7#FA400000001A001A
(1475151978.263329) can0 1CFFC7F7#018F019000000000
(1475151978.263627) can0 0CFFC2F7#0820000002580000
(1475151978.263930) can0 0CFFC8F7#00000000010F000F
(1475151978.264225) can0 18FFCBF7#0104FCA600000000
(1475151978.264547) can0 1CFFC5F7#01F3014B099D05DB
(1475151978.264876) can0 0CFFC3F7#0115401550504001
(1475151978.265210) can0 18FFC4F7#0000000000000000
(1475151978.265492) can0 0CFFCAF7#0000000000000000
(1475151978.333355) can0 00FFAB41#0000000000000001
(1475151978.337510) can0 0CFFAC41#0000000000000000
(1475151978.341750) can0 0CFFAE41#0820025800000000
(1475151978.361855) can0 1CFFC0F7#0000000002580000
(1475151978.362192) can0 18FFD1F7#04B104B104B10000
(1475151978.362474) can0 18FFD0F7#0000000000000000
(1475151978.362760) can0 18FFC9F7#0820025800000000
(1475151978.363051) can0 1CFFC6F7#FA400000001A001A
(1475151978.363317) can0 1CFFC7F7#018F019000000000
(1475151978.363628) can0 0CFFC2F7#0820000002580000
(1475151978.363932) can0 0CFFC8F7#00000000010F000F
(1475151978.364227) can0 18FFCBF7#0104FCA600000000
(1475151978.364463) can0 1CFFC5F7#01F3014B099E05DC
(1475151978.364786) can0 0CFFC3F7#0115401550504001
(1475151978.365119) can0 18FFC4F7#0000000000000000
(1475151978.365332) can0 0CFFCAF7#0000000000000000
(1475151978.432340) can0 00FFAB41#0000000000000001
(1475151978.436996) can0 0CFFAC41#0000000000000000
(1475151978.441245) can0 0CFFAE41#0820025800000000
(1475151978.461840) can0 1CFFC0F7#0000000002580000
(1475151978.462128) can0 18FFD1F7#04B104B104B10000
(1475151978.462415) can0 18FFD0F7#0000000000000000
(1475151978.462740) can0 18FFC9F7#0820025800000000
(1475151978.463021) can0 1CFFC6F7#FA430000001A001A
(1475151978.463304) can0 1CFFC7F7#018F019000000000
(1475151978.463590) can0 0CFFC2F7#0820000002580000
(1475151978.463876) can0 0CFFC8F7#00000000010F000F
(1475151978.464206) can0 18FFCBF7#0104FCA600000000
(1475151978.464488) can0 1CFFC5F7#01F3014B099D05DC
(1475151978.464770) can0 0CFFC3F7#0115401550504001
(1475151978.465054) can0 18FFC4F7#0000000000000000
(1475151978.465304) can0 0CFFCAF7#0000000000000000
(1475151978.532290) can0 00FFAB41#0000000000000001
(1475151978.536735) can0 0CFFAC41#0000000000000000
(1475151978.540959) can0 0CFFAE41#0820025800000000
(1475151978.561860) can0 1CFFC0F7#0000000002580000
(1475151978.562159) can0 18FFD1F7#04B104B104B10000
(1475151978.562454) can0 18FFD0F7#0000000000000000
(1475151978.562784) can0 18FFC9F7#0820025800000000
(1475151978.563058) can0 1CFFC6F7#FA420000001A001A
(1475151978.563333) can0 1CFFC7F7#018F019000000000
(1475151978.563612) can0 0CFFC2F7#0820000002580000
(1475151978.563884) can0 0CFFC8F7#00000000010F000F
(1475151978.564187) can0 18FFCBF7#0104FCA600000000
(1475151978.564437) can0 1CFFC5F7#01F3014B099D05DC
(1475151978.564768) can0 0CFFC3F7#0115401550504001
(1475151978.565052) can0 18FFC4F7#0000000000000000
(1475151978.565340) can0 0CFFCAF7#0000000000000000
(1475151978.637070) can0 00FFAB41#0000000000000001
(1475151978.641513) can0 0CFFAC41#0000000000000000
(1475151978.645751) can0 0CFFAE41#0820025800000000
(1475151978.661884) can0 1CFFC0F7#0000000002580000
(1475151978.662146) can0 18FFD1F7#04B104B104B10000
(1475151978.662452) can0 18FFD0F7#0000000000000000
(1475151978.662815) can0 18FFC9F7#0820025800000000
(1475151978.663085) can0 1CFFC6F7#FA430000001A001A
(1475151978.663354) can0 1CFFC7F7#018F019000000000
(1475151978.663663) can0 0CFFC2F7#0820000002580000
(1475151978.664000) can0 0CFFC8F7#00000000010F000F
(1475151978.664238) can0 18FFCBF7#0104FCA600000000
(1475151978.664541) can0 1CFFC5F7#01F3014B099C05DB
(1475151978.664800) can0 0CFFC3F7#0115401550504001
(1475151978.665027) can0 18FFC4F7#0000000000000000
(1475151978.665368) can0 0CFFCAF7#0000000000000000
(1475151978.732592) can0 00FFAB41#0000000000000001
(1475151978.736692) can0 0CFFAC41#0000000000000000
(1475151978.741193) can0 0CFFAE41#0820025800000000
(1475151978.761912) can0 1CFFC0F7#0000000002580000
(1475151978.762160) can0 18FFD1F7#04B104B104B10000
(1475151978.762454) can0 18FFD0F7#0000000000000000
(1475151978.762799) can0 18FFC9F7#0820025800000000
(1475151978.763112) can0 1CFFC6F7#FA430000001A001A
(1475151978.763371) can0 1CFFC7F7#018F019000000000
(1475151978.763684) can0 0CFFC2F7#0820000002580000
(1475151978.764000) can0 0CFFC8F7#00000000010F000F
(1475151978.764234) can0 18FFCBF7#0104FCA600000000
(1475151978.764627) can0 1CFFC5F7#01F3014B099D05DC
(1475151978.764917) can0 0CFFC3F7#0115401550504001
(1475151978.765223) can0 18FFC4F7#0000000000000000
(1475151978.765486) can0 0CFFCAF7#0000000000000000
(1475151978.832242) can0 00FFAB41#0000000000000001
(1475151978.836424) can0 0CFFAC41#0000000000000000
(1475151978.840771) can0 0CFFAE41#0820025800000000
(1475151978.861850) can0 1CFFC0F7#0000000002580000
(1475151978.862221) can0 18FFD1F7#04B104B104B10000
(1475151978.862460) can0 18FFD0F7#0000000000000000
(1475151978.862801) can0 18FFC9F7#0820025800000000
(1475151978.863083) can0 1CFFC6F7#FA400000001A001A
(1475151978.863353) can0 1CFFC7F7#018F019000000000
(1475151978.863626) can0 0CFFC2F7#0820000002580000
(1475151978.863902) can0 0CFFC8F7#00000000010F000F
(1475151978.864206) can0 18FFCBF7#0104FCA600000000
(1475151978.864544) can0 1CFFC5F7#01F3014B099D05DE
(1475151978.864807) can0 0CFFC3F7#0115401550504001
(1475151978.865070) can0 18FFC4F7#0000000000000000
(1475151978.865358) can0 0CFFCAF7#0000000000000000
(1475151978.932297) can0 00FFAB41#0000000000000001
(1475151978.936505) can0 0CFFAC41#0000000000000000
(1475151978.940838) can0 0CFFAE41#0820025800000000
(1475151978.961920) can0 1CFFC0F7#0000000002580000
(1475151978.962153) can0 18FFD1F7#04B104B104B10000
(1475151978.962467) can0 18FFD0F7#0000000000000000
(1475151978.962787) can0 18FFC9F7#0820025800000000
(1475151978.963092) can0 1CFFC6F7#FA420000001A001A
(1475151978.963323) can0 1CFFC7F7#018F019000000000
(1475151978.963615) can0 0CFFC2F7#0820000002580000
(1475151978.963895) can0 0CFFC8F7#00000000010F000F
(1475151978.964219) can0 18FFCBF7#0104FCA600000000
(1475151978.964482) can0 1CFFC5F7#01F3014B099C05DB
(1475151978.964785) can0 0CFFC3F7#0115401550504001
(1475151978.965024) can0 18FFC4F7#0000000000000000
(1475151978.965410) can0 0CFFCAF7#0000000000000000
(1475151979.032340) can0 00FFAB41#0000000000000001
(1475151979.036427) can0 0CFFAC41#0000000000000000
(1475151979.040678) can0 0CFFAE41#0820025800000000
(1475151979.061878) can0 1CFFC0F7#0000000002580000
(1475151979.062188) can0 18FFD1F7#04B104B104B10000
(1475151979.062490) can0 18FFD0F7#0000000000000000
(1475151979.062786) can0 18FFC9F7#0820025800000000
(1475151979.063047) can0 1CFFC6F7#FA420000001A001A
(1475151979.063361) can0 1CFFC7F7#018F019000000000
(1475151979.063635) can0 0CFFC2F7#0820000002580000
(1475151979.063920) can0 0CFFC8F7#00000000010F000F
(1475151979.064206) can0 18FFCBF7#0104FCA600000000
(1475151979.064456) can0 1CFFC5F7#01F3014B099D05DD
(1475151979.064786) can0 0CFFC3F7#0115401550504001
(1475151979.065091) can0 18FFC4F7#0000000000000000
(1475151979.065368) can0 0CFFCAF7#0000000000000000
(1475151979.136527) can0 00FFAB41#0000000000000001
(1475151979.140630) can0 0CFFAC41#0000000000000000
(1475151979.144847) can0 0CFFAE41#0820025800000000
(1475151979.161830) can0 1CFFC0F7#0000000002580000
(1475151979.162136) can0 18FFD1F7#04B104B104B10000
(1475151979.162466) can0 18FFD0F7#0000000000000000
(1475151979.162781) can0 18FFC9F7#0820025800000000
(1475151979.163059) can0 1CFFC6F7#FA3D0000001A001A
(1475151979.163309) can0 1CFFC7F7#018F019000000000
(1475151979.163599) can0 0CFFC2F7#0820000002580000
(1475151979.163885) can0 0CFFC8F7#00000000010F000F
(1475151979.164211) can0 18FFCBF7#0104FCA600000000
(1475151979.164498) can0 1CFFC5F7#01F3014B099D05DD
(1475151979.164780) can0 0CFFC3F7#0115401550504001
(1475151979.165063) can0 18FFC4F7#0000000000000000
(1475151979.165308) can0 0CFFCAF7#0000000000000000
(1475151979.232407) can0 00FFAB41#0000000000000001
(1475151979.236590) can0 0CFFAC41#0000000000000000
(1475151979.240815) can0 0CFFAE41#0820025800000000
(1475151979.261907) can0 1CFFC0F7#0000000002580000
(1475151979.262167) can0 18FFD1F7#04B104B104B10000
(1475151979.262469) can0 18FFD0F7#0000000000000000
(1475151979.262773) can0 18FFC9F7#0820025800000000
(1475151979.263071) can0 1CFFC6F7#FA3F0000001A001A
(1475151979.263343) can0 1CFFC7F7#018F019000000000
(1475151979.263656) can0 0CFFC2F7#0820000002580000
(1475151979.263908) can0 0CFFC8F7#00000000010F000F
(1475151979.264158) can0 18FFCBF7#0104FCA600000000
(1475151979.264452) can0 1CFFC5F7#01F3014B099C05DD
(1475151979.264750) can0 0CFFC3F7#0115401550504001
(1475151979.265044) can0 18FFC4F7#0000000000000000
(1475151979.265321) can0 0CFFCAF7#0000000000000000
(1475151979.332288) can0 00FFAB41#0000000000000001
(1475151979.336441) can0 0CFFAC41#0000000000000000
(1475151979.340723) can0 0CFFAE41#0820025800000000
(1475151979.361889) can0 1CFFC0F7#0000000002580000
(1475151979.362231) can0 18FFD1F7#04B104B104B10000
(1475151979.362506) can0 18FFD0F7#0000000000000000
(1475151979.362798) can0 18FFC9F7#0820025800000000
(1475151979.363074) can0 1CFFC6F7#FA3F0000001A001A
(1475151979.363327) can0 1CFFC7F7#018F019000000000
(1475151979.363628) can0 0CFFC2F7#0820000002580000
(1475151979.363898) can0 0CFFC8F7#00000000010F000F
(1475151979.364204) can0 18FFCBF7#0104FCA600000000
(1475151979.364422) can0 1CFFC5F7#01F3014B099D05DD
(1475151979.364781) can0 0CFFC3F7#0115401550504001
(1475151979.365035) can0 18FFC4F7#0000000000000000
(1475151979.365357) can0 0CFFCAF7#0000000000000000
(1475151979.432934) can0 00FFAB41#0000000000000001
(1475151979.437283) can0 0CFFAC41#0000000000000000
(1475151979.441471) can0 0CFFAE41#0820025800000000
(1475151979.461812) can0 1CFFC0F7#0000000002580000
(1475151979.462135) can0 18FFD1F7#04B104B104B10000
(1475151979.462467) can0 18FFD0F7#0000000000000000
(1475151979.462760) can0 18FFC9F7#0820025800000000
(1475151979.463043) can0 1CFFC6F7#FA3F0000001A001A
(1475151979.463321) can0 1CFFC7F7#018F019000000000
(1475151979.463580) can0 0CFFC2F7#0820000002580000
(1475151979.463918) can0 0CFFC8F7#00000000010F000F
(1475151979.464168) can0 18FFCBF7#0104FCA600000000
(1475151979.464447) can0 1CFFC5F7#01F3014B099D05DB
(1475151979.464741) can0 0CFFC3F7#0115401550504001
(1475151979.465008) can0 18FFC4F7#0000000000000000
(1475151979.465300) can0 0CFFCAF7#0000000000000000
(1475151979.533011) can0 00FFAB41#0000000000000001
(1475151979.537111) can0 0CFFAC41#0000000000000000
(1475151979.541312) can0 0CFFAE41#0820025800000000
(1475151979.561866) can0 1CFFC0F7#0000000002580000
(1475151979.562161) can0 18FFD1F7#04B104B104B10000
(1475151979.562480) can0 18FFD0F7#0000000000000000
(1475151979.562758) can0 18FFC9F7#0820025800000000
(1475151979.563064) can0 1CFFC6F7#FA3F0000001A001A
(1475151979.563325) can0 1CFFC7F7#018F019000000000
(1475151979.563588) can0 0CFFC2F7#0820000002580000
(1475151979.563894) can0 0CFFC8F7#00000000010F000F
(1475151979.564189) can0 18FFCBF7#0104FCA600000000
(1475151979.564484) can0 1CFFC5F7#01F3014B099C05DD
(1475151979.564791) can0 0CFFC3F7#0115401550504001
(1475151979.565055) can0 18FFC4F7#0000000000000000
(1475151979.565337) can0 0CFFCAF7#0000000000000000
(1475151979.637282) can0 00FFAB41#0000000000000001
(1475151979.641402) can0 0CFFAC41#0000000000000000
(1475151979.645624) can0 0CFFAE41#0820025800000000
(1475151979.661862) can0 1CFFC0F7#0000000002580000
(1475151979.662158) can0 18FFD1F7#04B104B104B10000
(1475151979.662466) can0 18FFD0F7#0000000000000000
(1475151979.662745) can0 18FFC9F7#0820025800000000
(1475151979.662985) can0 1CFFC6F7#FA400000001A001A
(1475151979.663283) can0 1CFFC7F7#018F019000000000
(1475151979.663616) can0 0CFFC2F7#0820000002580000
(1475151979.663927) can0 0CFFC8F7#00000000010F000F
(1475151979.664179) can0 18FFCBF7#0104FCA600000000
(1475151979.664476) can0 1CFFC5F7#01F3014B099E05DC
(1475151979.664800) can0 0CFFC3F7#0115401550504001
(1475151979.665064) can0 18FFC4F7#0000000000000000
(1475151979.665346) can0 0CFFCAF7#0000000000000000
(1475151979.732715) can0 00FFAB41#0000000000000001
(1475151979.736837) can0 0CFFAC41#0000000000000000
(1475151979.741100) can0 0CFFAE41#0820025800000000
(1475151979.761840) can0 1CFFC0F7#0000000002580000
(1475151979.762154) can0 18FFD1F7#04B104B104B10000
(1475151979.762440) can0 18FFD0F7#0000000000000000
(1475151979.762721) can0 18FFC9F7#0820025800000000
(1475151979.762994) can0 1CFFC6F7#FA420000001A001A
(1475151979.763344) can0 1CFFC7F7#018F019000000000
(1475151979.763606) can0 0CFFC2F7#0820000002580000
(1475151979.763892) can0 0CFFC8F7#00000000010F000F
(1475151979.764178) can0 18FFCBF7#0104FCA600000000
(1475151979.764463) can0 1CFFC5F7#01F3014B099D05DB
(1475151979.764744) can0 0CFFC3F7#0115401550504001
(1475151979.765049) can0 18FFC4F7#0000000000000000
(1475151979.765338) can0 0CFFCAF7#0000000000000000
(1475151979.832244) can0 00FFAB41#0000000000000001
(1475151979.836730) can0 0CFFAC41#0000000000000000
(1475151979.840963) can0 0CFFAE41#0820025800000000
(1475151979.861895) can0 1CFFC0F7#0000000002580000
(1475151979.862157) can0 18FFD1F7#04B104B104B10000
(1475151979.862452) can0 18FFD0F7#0000000000000000
(1475151979.862757) can0 18FFC9F7#0820025800000000
(1475151979.863050) can0 1CFFC6F7#FA420000001A001A
(1475151979.863300) can0 1CFFC7F7#018F019000000000
(1475151979.863622) can0 0CFFC2F7#0820000002580000
(1475151979.863878) can0 0CFFC8F7#00000000010F000F
(1475151979.864165) can0 18FFCBF7#0104FCA600000000
(1475151979.864525) can0 1CFFC5F7#01F3014B099C05DB
(1475151979.864787) can0 0CFFC3F7#0115401550504001
(1475151979.865062) can0 18FFC4F7#0000000000000000
(1475151979.865313) can0 0CFFCAF7#0000000000000000
(1475151979.932415) can0 00FFAB41#0000000000000001
(1475151979.936890) can0 0CFFAC41#0000000000000000
(1475151979.941211) can0 0CFFAE41#0820025800000000
(1475151979.961876) can0 1CFFC0F7#0000000002580000
(1475151979.962123) can0 18FFD1F7#04B104B104B10000
(1475151979.962448) can0 18FFD0F7#0000000000000000
(1475151979.962748) can0 18FFC9F7#0820025800000000
(1475151979.963028) can0 1CFFC6F7#FA400000001A001A
(1475151979.963335) can0 1CFFC7F7#018F019000000000
(1475151979.963612) can0 0CFFC2F7#0820000002580000
(1475151979.963871) can0 0CFFC8F7#00000000010F000F
(1475151979.964161) can0 18FFCBF7#0104FCA600000000
(1475151979.964445) can0 1CFFC5F7#01F3014B099C05DD
(1475151979.964801) can0 0CFFC3F7#0115401550504001
(1475151979.965097) can0 18FFC4F7#0000000000000000
(1475151979.965386) can0 0CFFCAF7#0000000000000000
(1475151980.032945) can0 00FFAB41#0000000000000001
(1475151980.037085) can0 0CFFAC41#0000000000000000
(1475151980.041620) can0 0CFFAE41#0820025800000000
(1475151980.061893) can0 1CFFC0F7#0000000002580000
(1475151980.062174) can0 18FFD1F7#04B104B104B10000
(1475151980.062437) can0 18FFD0F7#0000000000000000
(1475151980.062785) can0 18FFC9F7#0820025800000000
(1475151980.063090) can0 1CFFC6F7#FA430000001A001A
(1475151980.063368) can0 1CFFC7F7#018F019000000000
(1475151980.063655) can0 0CFFC2F7#0820000002580000
(1475151980.063998) can0 0CFFC8F7#00000000010F000F
(1475151980.064224) can0 18FFCBF7#0104FCA600000000
(1475151980.064612) can0 1CFFC5F7#01F3014B099D05DB
(1475151980.064888) can0 0CFFC3F7#0115401550504001
(1475151980.065271) can0 18FFC4F7#0000000000000000
(1475151980.065470) can0 0CFFCAF7#0000000000000000
(1475151980.136196) can0 00FFAB41#0000000000000001
(1475151980.140274) can0 0CFFAC41#0000000000000000
(1475151980.144822) can0 0CFFAE41#0820025800000000
(1475151980.161896) can0 1CFFC0F7#0000000002580000
(1475151980.162139) can0 18FFD1F7#04B104B104B10000
(1475151980.162503) can0 18FFD0F7#0000000000000000
(1475151980.162785) can0 18FFC9F7#0820025800000000
(1475151980.163071) can0 1CFFC6F7#FA420000001A001A
(1475151980.163361) can0 1CFFC7F7#018F019000000000
(1475151980.163714) can0 0CFFC2F7#0820000002580000
(1475151980.163941) can0 0CFFC8F7#00000000010F000F
(1475151980.164252) can0 18FFCBF7#0104FCA600000000
(1475151980.164557) can0 1CFFC5F7#01F3014B099D05DC
(1475151980.164875) can0 0CFFC3F7#0115401550504001
(1475151980.165181) can0 18FFC4F7#0000000000000000
(1475151980.165433) can0 0CFFCAF7#0000000000000000
(1475151980.232354) can0 00FFAB41#0000000000000001
(1475151980.236453) can0 0CFFAC41#0000000000000000
(1475151980.240743) can0 0CFFAE41#0820025800000000
(1475151980.261815) can0 1CFFC0F7#0000000002580000
(1475151980.262138) can0 18FFD1F7#04B104B104B10000
(1475151980.262421) can0 18FFD0F7#0000000000000000
(1475151980.262730) can0 18FFC9F7#0820025800000000
(1475151980.263011) can0 1CFFC6F7#FA3F0000001A001A
(1475151980.263294) can0 1CFFC7F7#018F019000000000
(1475151980.263576) can0 0CFFC2F7#0820000002580000
(1475151980.263863) can0 0CFFC8F7#00000000010F000F
(1475151980.264195) can0 18FFCBF7#0104FCA600000000
(1475151980.264476) can0 1CFFC5F7#01F3014B099D05DC
(1475151980.264763) can0 0CFFC3F7#0115401550504001
(1475151980.265048) can0 18FFC4F7#0000000000000000
(1475151980.265324) can0 0CFFCAF7#0000000000000000
(1475151980.332822) can0 00FFAB41#0000000000000001
(1475151980.336878) can0 0CFFAC41#0000000000000000
(1475151980.341102) can0 0CFFAE41#0820025800000000
(1475151980.361848) can0 1CFFC0F7#0000000002580000
(1475151980.362186) can0 18FFD1F7#04B104B104B10000
(1475151980.362439) can0 18FFD0F7#0000000000000000
(1475151980.362760) can0 18FFC9F7#0820025800000000
(1475151980.363031) can0 1CFFC6F7#FA430000001A001A
(1475151980.363343) can0 1CFFC7F7#018F019000000000
(1475151980.363611) can0 0CFFC2F7#0820000002580000
(1475151980.363911) can0 0CFFC8F7#00000000010F000F
(1475151980.364204) can0 18FFCBF7#0104FCA600000000
(1475151980.364440) can0 1CFFC5F7#01F3014B099D05DC
(1475151980.364775) can0 0CFFC3F7#0115401550504001
(1475151980.365042) can0 18FFC4F7#0000000000000000
(1475151980.365306) can0 0CFFCAF7#0000000000000000
(1475151980.432882) can0 00FFAB41#0000000000000001
(1475151980.441320) can0 0CFFAC41#0000000000000000
(1475151980.453618) can0 0CFFAE41#0820025800000000
(1475151980.461894) can0 1CFFC0F7#0000000002580000
(1475151980.462145) can0 18FFD1F7#04B104B104B10000
(1475151980.462441) can0 18FFD0F7#0000000000000000
(1475151980.462715) can0 18FFC9F7#0820025800000000
(1475151980.462999) can0 1CFFC6F7#FA420000001A001A
(1475151980.463315) can0 1CFFC7F7#018F019000000000
(1475151980.463607) can0 0CFFC2F7#0820000002580000
(1475151980.463946) can0 0CFFC8F7#00000000010F000F
(1475151980.464190) can0 18FFCBF7#0104FCA600000000
(1475151980.464490) can0 1CFFC5F7#01F3014B099D05DD
(1475151980.464833) can0 0CFFC3F7#0115401550504001
(1475151980.465056) can0 18FFC4F7#0000000000000000
(1475151980.465366) can0 0CFFCAF7#0000000000000000
(1475151980.532787) can0 00FFAB41#0000000000000001
(1475151980.536941) can0 0CFFAC41#0000000000000000
(1475151980.541139) can0 0CFFAE41#0820025800000000
(1475151980.561877) can0 1CFFC0F7#0000000002580000
(1475151980.562217) can0 18FFD1F7#04B104B104B10000
(1475151980.562560) can0 18FFD0F7#0000000000000000
(1475151980.562734) can0 18FFC9F7#0820025800000000
(1475151980.562992) can0 1CFFC6F7#FA430000001A001A
(1475151980.563280) can0 1CFFC7F7#018F019000000000
(1475151980.563616) can0 0CFFC2F7#0820000002580000
(1475151980.563889) can0 0CFFC8F7#00000000010F000F
(1475151980.564168) can0 18FFCBF7#0104FCA600000000
(1475151980.564404) can0 1CFFC5F7#01F3014B099D05DB
(1475151980.564726) can0 0CFFC3F7#0115401550504001
(1475151980.565022) can0 18FFC4F7#0000000000000000
(1475151980.565303) can0 0CFFCAF7#0000000000000000
(1475151980.636669) can0 00FFAB41#0000000000000001
(1475151980.640721) can0 0CFFAC41#0000000000000000
(1475151980.644973) can0 0CFFAE41#0820025800000000
(1475151980.661842) can0 1CFFC0F7#0000000002580000
(1475151980.662119) can0 18FFD1F7#04B104B104B10000
(1475151980.662440) can0 18FFD0F7#0000000000000000
(1475151980.662771) can0 18FFC9F7#0820025800000000
(1475151980.663003) can0 1CFFC6F7#FA400000001A001A
(1475151980.663342) can0 1CFFC7F7#018F019000000000
(1475151980.663607) can0 0CFFC2F7#0820000002580000
(1475151980.663890) can0 0CFFC8F7#00000000010F000F
(1475151980.664187) can0 18FFCBF7#0104FCA600000000
(1475151980.664429) can0 1CFFC5F7#01F3014B099E05DE
(1475151980.664748) can0 0CFFC3F7#0115401550504001
(1475151980.664997) can0 18FFC4F7#0000000000000000
(1475151980.665292) can0 0CFFCAF7#0000000000000000
(1475151980.732890) can0 00FFAB41#0000000000000001
(1475151980.737100) can0 0CFFAC41#0000000000000000
(1475151980.741369) can0 0CFFAE41#0820025800000000
(1475151980.761827) can0 1CFFC0F7#0000000002580000
(1475151980.762146) can0 18FFD1F7#04B104B104B10000
(1475151980.762445) can0 18FFD0F7#0000000000000000
(1475151980.762735) can0 18FFC9F7#0820025800000000
(1475151980.763021) can0 1CFFC6F7#FA3F0000001A001A
(1475151980.763280) can0 1CFFC7F7#018F019000000000
(1475151980.763562) can0 0CFFC2F7#0820000002580000
(1475151980.763886) can0 0CFFC8F7#00000000010F000F
(1475151980.764176) can0 18FFCBF7#0104FCA600000000
(1475151980.764471) can0 1CFFC5F7#01F3014B099D05DC
(1475151980.764767) can0 0CFFC3F7#0115401550504001
(1475151980.765040) can0 18FFC4F7#0000000000000000
(1475151980.765336) can0 0CFFCAF7#0000000000000000
(1475151980.832303) can0 00FFAB41#0000000000000001
(1475151980.836458) can0 0CFFAC41#0000000000000000
(1475151980.840746) can0 0CFFAE41#0820025800000000
(1475151980.861821) can0 1CFFC0F7#0000000002580000
(1475151980.862108) can0 18FFD1F7#04B104B104B10000
(1475151980.862432) can0 18FFD0F7#0000000000000000
(1475151980.862742) can0 18FFC9F7#0820025800000000
(1475151980.863037) can0 1CFFC6F7#FA430000001A001A
(1475151980.863320) can0 1CFFC7F7#018F019000000000
(1475151980.863583) can0 0CFFC2F7#0820000002580000
(1475151980.863867) can0 0CFFC8F7#00000000010F000F
(1475151980.864160) can0 18FFCBF7#0104FCA600000000
(1475151980.864416) can0 1CFFC5F7#01F3014B099C05DC
(1475151980.864738) can0 0CFFC3F7#0115401550504001
(1475151980.865016) can0 18FFC4F7#0000000000000000
(1475151980.865298) can0 0CFFCAF7#0000000000000000
(1475151980.934386) can0 00FFAB41#0000000000000001
(1475151980.940299) can0 0CFFAC41#0000000000000000
(1475151980.944529) can0 0CFFAE41#0820025800000000
(1475151980.961818) can0 1CFFC0F7#0000000002580000
(1475151980.962133) can0 18FFD1F7#04B104B104B10000
(1475151980.962416) can0 18FFD0F7#0000000000000000
(1475151980.962746) can0 18FFC9F7#0820025800000000
(1475151980.963028) can0 1CFFC6F7#FA400000001A001A
(1475151980.963276) can0 1CFFC7F7#018F019000000000
(1475151980.963564) can0 0CFFC2F7#0820000002580000
(1475151980.963849) can0 0CFFC8F7#00000000010F000F
(1475151980.964180) can0 18FFCBF7#0104FCA600000000
(1475151980.964466) can0 1CFFC5F7#01F3014B099D05DD
(1475151980.964746) can0 0CFFC3F7#0115401550504001
(1475151980.965029) can0 18FFC4F7#0000000000000000
(1475151980.965278) can0 0CFFCAF7#0000000000000000
(1475151981.032843) can0 00FFAB41#0100000000000001
(1475151981.036954) can0 0CFFAC41#0000000000000000
(1475151981.041247) can0 0CFFAE41#0820025800000000
(1475151981.061920) can0 1CFFC0F7#0000000002580000
(1475151981.062153) can0 18FFD1F7#04B104B104B10000
(1475151981.062434) can0 18FFD0F7#0000000000000000
(1475151981.062774) can0 18FFC9F7#0820025800000000
(1475151981.063073) can0 1CFFC6F7#FA450000001D001F
(1475151981.063344) can0 1CFFC7F7#01740190FF9C0000
(1475151981.063642) can0 0CFFC2F7#0820000B02580000
(1475151981.063928) can0 0CFFC8F7#00000000010F000F
(1475151981.064195) can0 18FFCBF7#0104FCA600DC0000
(1475151981.064535) can0 1CFFC5F7#01F3014B099D05DB
(1475151981.064886) can0 0CFFC3F7#1255401550504001
(1475151981.065212) can0 18FFC4F7#0000000000000000
(1475151981.065566) can0 0CFFCAF7#FFFFFD5F0000126C
(1475151981.137786) can0 00FFAB41#0100000000000001
(1475151981.141836) can0 0CFFAC41#0000000000000000
(1475151981.146005) can0 0CFFAE41#0820025800000000
(1475151981.161873) can0 1CFFC0F7#0000000002580000
(1475151981.162138) can0 18FFD1F7#04B104B104B10000
(1475151981.162422) can0 18FFD0F7#0000000000000000
(1475151981.162733) can0 18FFC9F7#0820025800000000
(1475151981.163013) can0 1CFFC6F7#FA3D0000001F001F
(1475151981.163298) can0 1CFFC7F7#00460190FFDB0000
(1475151981.163602) can0 0CFFC2F7#0820000D02580000
(1475151981.163864) can0 0CFFC8F7#00000000010F000F
(1475151981.164150) can0 18FFCBF7#0104FCA600BA0000
(1475151981.164424) can0 1CFFC5F7#01F3014B099C05DD
(1475151981.164746) can0 0CFFC3F7#1255401550504001
(1475151981.165005) can0 18FFC4F7#0000000000000000
(1475151981.165282) can0 0CFFCAF7#FFFFFD5F0000126C
(1475151981.261851) can0 1CFFC0F7#0000000002580000
(1475151981.262125) can0 18FFD1F7#04B104B104B10000
(1475151981.262411) can0 18FFD0F7#0000000000000000
(1475151981.262761) can0 18FFC9F7#0820025800000000
(1475151981.263073) can0 1CFFC6F7#FA3F00000022002B
(1475151981.263330) can0 1CFFC7F7#01A60190FF4B0000
(1475151981.263607) can0 0CFFC2F7#0820000D02580000
(1475151981.263883) can0 0CFFC8F7#00000000010F000F
(1475151981.264168) can0 18FFCBF7#0104FCA602170000
(1475151981.264469) can0 1CFFC5F7#01F3014C099E05DE
(1475151981.264751) can0 0CFFC3F7#1255401550504001
(1475151981.265022) can0 18FFC4F7#0000000000000000
(1475151981.265326) can0 0CFFCAF7#FFFFFD5F0000126C
(1475151981.276027) can0 00FFAB41#0100000000000001
(1475151981.280126) can0 0CFFAC41#0000000000000000
(1475151981.284336) can0 0CFFAE41#0820025800000000
(1475151981.332650) can0 00FFAB41#0100000000000001
(1475151981.336698) can0 0CFFAC41#0000000000000000
(1475151981.340988) can0 0CFFAE41#0820025800000000
(1475151981.361869) can0 1CFFC0F7#0000000002580000
(1475151981.362177) can0 18FFD1F7#04B104B104B10000
(1475151981.362459) can0 18FFD0F7#0000000000000000
(1475151981.362705) can0 18FFC9F7#0820025800000000
(1475151981.363020) can0 1CFFC6F7#FA42000000230031
(1475151981.363299) can0 1CFFC7F7#01900190FF4A0000
(1475151981.363599) can0 0CFFC2F7#0820000D02580000
(1475151981.363910) can0 0CFFC8F7#00000000010F000F
(1475151981.364211) can0 18FFCBF7#0104FCA6026D0000
(1475151981.364460) can0 1CFFC5F7#01F3014B099E05DC
(1475151981.364780) can0 0CFFC3F7#1255401550504001
(1475151981.365023) can0 18FFC4F7#0000000000000000
(1475151981.365274) can0 0CFFCAF7#FFFFFD5F0000126C
(1475151981.432227) can0 00FFAB41#0100000000000001
(1475151981.436423) can0 0CFFAC41#0000000000000000
(1475151981.440957) can0 0CFFAE41#0820025800000000
(1475151981.461839) can0 1CFFC0F7#0000000002580000
(1475151981.462116) can0 18FFD1F7#04B104B104B10000
(1475151981.462406) can0 18FFD0F7#0000000000000000
(1475151981.462720) can0 18FFC9F7#0820025800000000
(1475151981.462979) can0 1CFFC6F7#FA3F00000023002C
(1475151981.463298) can0 1CFFC7F7#007A0190FFD70000
(1475151981.463566) can0 0CFFC2F7#0820000D02580000
(1475151981.463876) can0 0CFFC8F7#00000000010F000F
(1475151981.464176) can0 18FFCBF7#0104FCA6017A0000
(1475151981.464425) can0 1CFFC5F7#01F3014B099D05DE
(1475151981.464727) can0 0CFFC3F7#1255401550504001
(1475151981.464977) can0 18FFC4F7#0000000000000000
(1475151981.465300) can0 0CFFCAF7#FFFFFD5F0000126C
(1475151981.532421) can0 00FFAB41#0100000000000001
(1475151981.536548) can0 0CFFAC41#0000000000000000
(1475151981.540740) can0 0CFFAE41#0820025800000000
(1475151981.561881) can0 1CFFC0F7#0000000002580000
(1475151981.562186) can0 18FFD1F7#04B104B104B10000
(1475151981.562457) can0 18FFD0F7#0002000200020000
(1475151981.562738) can0 18FFC9F7#0820025800000000
(1475151981.563038) can0 1CFFC6F7#FA42000000220027
(1475151981.563330) can0 1CFFC7F7#00520190FFDC0000
(1475151981.563575) can0 0CFFC2F7#0820000D02580000
(1475151981.563893) can0 0CFFC8F7#00000000010F000F
(1475151981.564158) can0 18FFCBF7#0104FCA600DA0000
(1475151981.564470) can0 1CFFC5F7#01F3014B099C05DD
(1475151981.564744) can0 0CFFC3F7#1255401550504001
(1475151981.565068) can0 18FFC4F7#0000000000000000
(1475151981.565350) can0 0CFFCAF7#FFFFFD780000126B
(1475151981.636730) can0 00FFAB41#0100000000000001
(1475151981.640729) can0 0CFFAC41#0000000000000000
(1475151981.645256) can0 0CFFAE41#0820025800000000
(1475151981.661926) can0 1CFFC0F7#0000000002580000
(1475151981.662155) can0 18FFD1F7#04B104B104B10000
(1475151981.662444) can0 18FFD0F7#0016001600160000
(1475151981.662747) can0 18FFC9F7#0820025800000000
(1475151981.663009) can0 1CFFC6F7#FA42000000220024
(1475151981.663330) can0 1CFFC7F7#004F0190FFDC0000
(1475151981.663606) can0 0CFFC2F7#0820001802580000
(1475151981.663891) can0 0CFFC8F7#00000000010F000F
(1475151981.664138) can0 18FFCBF7#0104FCA601170000
(1475151981.664446) can0 1CFFC5F7#01F3014B099D05DC
(1475151981.664771) can0 0CFFC3F7#1255401550504001
(1475151981.665005) can0 18FFC4F7#0000000000000000
(1475151981.665306) can0 0CFFCAF7#0000001D00001234
(1475151981.732782) can0 00FFAB41#0100000000000001
(1475151981.736909) can0 0CFFAC41#0000000000000000
(1475151981.741104) can0 0CFFAE41#0820025800000000
(1475151981.761913) can0 1CFFC0F7#0000000002580000
(1475151981.762150) can0 18FFD1F7#04B104B104B10000
(1475151981.762450) can0 18FFD0F7#002C002C002C0000
(1475151981.762739) can0 18FFC9F7#0820025800000000
(1475151981.762983) can0 1CFFC6F7#FA3D00000024002C
(1475151981.763268) can0 1CFFC7F7#01690190FF4F0000
(1475151981.763583) can0 0CFFC2F7#0820002C02580000
(1475151981.763870) can0 0CFFC8F7#00000000010F000F
(1475151981.764174) can0 18FFCBF7#0104FCA602AE0000
(1475151981.764456) can0 1CFFC5F7#01F3014B099C05DC
(1475151981.764735) can0 0CFFC3F7#1255401550504001
(1475151981.765006) can0 18FFC4F7#0000000000000000
(1475151981.765316) can0 0CFFCAF7#0000060C000011B7
(1475151981.832654) can0 00FFAB41#0100000000000001
(1475151981.836785) can0 0CFFAC41#0000000000000000
(1475151981.840955) can0 0CFFAE41#0820025800000000
(1475151981.861846) can0 1CFFC0F7#0000000002580000
(1475151981.862180) can0 18FFD1F7#04B104B104B10000
(1475151981.862437) can0 18FFD0F7#0042004200420000
(1475151981.862734) can0 18FFC9F7#0820025800000000
(1475151981.862987) can0 1CFFC6F7#FA40000000250033
(1475151981.863288) can0 1CFFC7F7#018C0190FF4A0000
(1475151981.863596) can0 0CFFC2F7#0820004102580000
(1475151981.863905) can0 0CFFC8F7#00000000010F000F
(1475151981.864149) can0 18FFCBF7#0104FCA603DE0000
(1475151981.864455) can0 1CFFC5F7#01F3014B099D05DC
(1475151981.864758) can0 0CFFC3F7#1255401550504001
(1475151981.865015) can0 18FFC4F7#0000000000000000
(1475151981.865300) can0 0CFFCAF7#00000EE3000010FC
(1475151981.932892) can0 00FFAB41#0100000000000001
(1475151981.937051) can0 0CFFAC41#0000000000000000
(1475151981.941297) can0 0CFFAE41#0820025800000000
(1475151981.961898) can0 1CFFC0F7#0000000002580000
(1475151981.962148) can0 18FFD1F7#04B104B104B10000
(1475151981.962469) can0 18FFD0F7#0057005800580000
(1475151981.962762) can0 18FFC9F7#0820025800000000
(1475151981.963016) can0 1CFFC6F7#FA3F000000260037
(1475151981.963297) can0 1CFFC7F7#018F0190FF4A0000
(1475151981.963554) can0 0CFFC2F7#0820005702580000
(1475151981.963872) can0 0CFFC8F7#00000000010F000F
(1475151981.964166) can0 18FFCBF7#0104FCA6049A0000
(1475151981.964450) can0 1CFFC5F7#01F3014B099D05DE
(1475151981.964756) can0 0CFFC3F7#1255401550504001
(1475151981.965038) can0 18FFC4F7#0000000000000000
(1475151981.965289) can0 0CFFCAF7#00001A480000100A
(1475151982.032563) can0 00FFAB41#0100000000000001
(1475151982.036687) can0 0CFFAC41#0000000000000000
(1475151982.040871) can0 0CFFAE41#0820025800000000
(1475151982.061875) can0 1CFFC0F7#0000000002580000
(1475151982.062215) can0 18FFD1F7#04B104B104B10000
(1475151982.062449) can0 18FFD0F7#006C006C006C0000
(1475151982.062752) can0 18FFC9F7#0820025800000000
(1475151982.063043) can0 1CFFC6F7#FA3F00000026003A
(1475151982.063359) can0 1CFFC7F7#018F0190FF4A0000
(1475151982.063652) can0 0CFFC2F7#0820006902580000
(1475151982.063888) can0 0CFFC8F7#00000000010F000F
(1475151982.064139) can0 18FFCBF7#0104FCA6053B0000
(1475151982.064431) can0 1CFFC5F7#01F3014B099C05DD
(1475151982.064722) can0 0CFFC3F7#1255401550504001
(1475151982.064983) can0 18FFC4F7#0000000000000000
(1475151982.065267) can0 0CFFCAF7#000027D600000EEB
(1475151982.136962) can0 00FFAB41#0100000000000001
(1475151982.140960) can0 0CFFAC41#0000000000000000
(1475151982.145143) can0 0CFFAE41#0820025800000000
(1475151982.161875) can0 1CFFC0F7#0000000002580000
(1475151982.162173) can0 18FFD1F7#04B104B104B10000
(1475151982.162450) can0 18FFD0F7#006D006D006D0000
(1475151982.162752) can0 18FFC9F7#0820025800000000
(1475151982.163042) can0 1CFFC6F7#FA42000000250033
(1475151982.163323) can0 1CFFC7F7#00AC0190FFD40000
(1475151982.163580) can0 0CFFC2F7#0820006A02580000
(1475151982.163874) can0 0CFFC8F7#00000000010F000F
(1475151982.164171) can0 18FFCBF7#0104FCA604880000
(1475151982.164422) can0 1CFFC5F7#01F3014B099E05DB
(1475151982.164745) can0 0CFFC3F7#1255401550504001
(1475151982.165038) can0 18FFC4F7#0000000000000000
(1475151982.165298) can0 0CFFCAF7#000034D400000DD7
(1475151982.232826) can0 00FFAB41#0100000000000001
(1475151982.236966) can0 0CFFAC41#0000000000000000
(1475151982.241280) can0 0CFFAE41#0820025800000000
(1475151982.261821) can0 1CFFC0F7#0000000002580000
(1475151982.262169) can0 18FFD1F7#04B104B104B10000
(1475151982.262463) can0 18FFD0F7#006D006D006D0000
(1475151982.262728) can0 18FFC9F7#0820025800000000
(1475151982.262960) can0 1CFFC6F7#FA4200000024002C
(1475151982.263248) can0 1CFFC7F7#00530190FFDC0000
(1475151982.263547) can0 0CFFC2F7#0820006A02580000
(1475151982.263867) can0 0CFFC8F7#00000000010F000F
(1475151982.264159) can0 18FFCBF7#0104FCA603D50000
(1475151982.264449) can0 1CFFC5F7#01F3014B099E05DE
(1475151982.264754) can0 0CFFC3F7#1255401550504001
(1475151982.265049) can0 18FFC4F7#0000000000000000
(1475151982.265298) can0 0CFFCAF7#0000404900000CE3
(1475151982.333529) can0 00FFAB41#0100000000000001
(1475151982.337590) can0 0CFFAC41#0000000000000000
(1475151982.341810) can0 0CFFAE41#0820025800000000
(1475151982.361879) can0 1CFFC0F7#0000000002580000
(1475151982.362174) can0 18FFD1F7#04B104B104B10000
(1475151982.362430) can0 18FFD0F7#006D006D006D0000
(1475151982.362777) can0 18FFC9F7#0820025800000000
(1475151982.363036) can0 1CFFC6F7#FA3F000000240029
(1475151982.363338) can0 1CFFC7F7#004F0190FFDC0000
(1475151982.363607) can0 0CFFC2F7#0820006A02580000
(1475151982.363909) can0 0CFFC8F7#00000000010F000F
(1475151982.364210) can0 18FFCBF7#0104FCA603B10000
(1475151982.364537) can0 1CFFC5F7#01F3014B099D05DE
(1475151982.364843) can0 0CFFC3F7#1255401550504001
(1475151982.365124) can0 18FFC4F7#0000000000000000
(1475151982.365433) can0 0CFFCAF7#00004A6400000C0C
(1475151982.433328) can0 00FFAB41#0100000000000001
(1475151982.437608) can0 0CFFAC41#0000000000000000
(1475151982.441800) can0 0CFFAE41#0820025800000000
(1475151982.461856) can0 1CFFC0F7#0000000002580000
(1475151982.462148) can0 18FFD1F7#04B104B104B10000
(1475151982.462462) can0 18FFD0F7#006D006D006D0000
(1475151982.462738) can0 18FFC9F7#0820025800000000
(1475151982.463032) can0 1CFFC6F7#FA42000000240027
(1475151982.463304) can0 1CFFC7F7#004F0190FFDC0000
(1475151982.463580) can0 0CFFC2F7#0820006A02580000
(1475151982.463862) can0 0CFFC8F7#00000000010F000F
(1475151982.464157) can0 18FFCBF7#0104FCA603AA0000
(1475151982.464444) can0 1CFFC5F7#01F3014B099D05DB
(1475151982.464720) can0 0CFFC3F7#1255401550504001
(1475151982.465111) can0 18FFC4F7#0000000000000000
(1475151982.465263) can0 0CFFCAF7#0000534D00000B4F
(1475151982.533762) can0 00FFAB41#0100000000000001
(1475151982.537796) can0 0CFFAC41#0000000000000000
(1475151982.541960) can0 0CFFAE41#0820025800000000
(1475151982.561857) can0 1CFFC0F7#0000000002580000
(1475151982.562191) can0 18FFD1F7#04B104B104B10000
(1475151982.562439) can0 18FFD0F7#006D006D006D0000
(1475151982.562737) can0 18FFC9F7#0820025800000000
(1475151982.563028) can0 1CFFC6F7#FA40000000240026
(1475151982.563293) can0 1CFFC7F7#004F0190FFDC0000
(1475151982.563553) can0 0CFFC2F7#0820006A02580000
(1475151982.563849) can0 0CFFC8F7#00000000010F000F
(1475151982.564155) can0 18FFCBF7#0104FCA603A80000
(1475151982.564432) can0 1CFFC5F7#01F3014B099C05DE
(1475151982.564745) can0 0CFFC3F7#1255401550504001
(1475151982.565011) can0 18FFC4F7#0000000000000000
(1475151982.565285) can0 0CFFCAF7#00005B2800000AA8
(1475151982.636854) can0 00FFAB41#0100000000000001
(1475151982.640824) can0 0CFFAC41#0000000000000000
(1475151982.645016) can0 0CFFAE41#0820025800000000
(1475151982.661898) can0 1CFFC0F7#0000000002580000
(1475151982.662178) can0 18FFD1F7#04B104B104B10000
(1475151982.662445) can0 18FFD0F7#006D006D006D0000
(1475151982.662743) can0 18FFC9F7#0820025800000000
(1475151982.663044) can0 1CFFC6F7#FA4000000025002E
(1475151982.663337) can0 1CFFC7F7#01280190FF530000
(1475151982.663610) can0 0CFFC2F7#0820006A02580000
(1475151982.663928) can0 0CFFC8F7#00000000010F000F
(1475151982.664141) can0 18FFCBF7#0104FCA6049B0000
(1475151982.664442) can0 1CFFC5F7#01F3014B099D05DC
(1475151982.664757) can0 0CFFC3F7#1255401550504001
(1475151982.665044) can0 18FFC4F7#0000000000000000
(1475151982.665297) can0 0CFFCAF7#0000621600000A15
(1475151982.732671) can0 00FFAB41#0100000000000001
(1475151982.736768) can0 0CFFAC41#0000000000000000
(1475151982.741354) can0 0CFFAE41#0820025800000000
(1475151982.761878) can0 1CFFC0F7#0000000002580000
(1475151982.762208) can0 18FFD1F7#04B104B104B10000
(1475151982.762439) can0 18FFD0F7#006D006D006D0000
(1475151982.762735) can0 18FFC9F7#0820025800000000
(1475151982.763022) can0 1CFFC6F7#FA42000000270036
(1475151982.763298) can0 1CFFC7F7#018B0190FF4A0000
(1475151982.763559) can0 0CFFC2F7#0820006A02580000
(1475151982.763853) can0 0CFFC8F7#00000000010F000F
(1475151982.764155) can0 18FFCBF7#0104FCA605540000
(1475151982.764442) can0 1CFFC5F7#01F3014B099D05DC
(1475151982.764725) can0 0CFFC3F7#1255401550504001
(1475151982.765044) can0 18FFC4F7#0000000000000000
(1475151982.765338) can0 0CFFCAF7#0000683200000993
(1475151982.832824) can0 00FFAB41#0100000000000001
(1475151982.836992) can0 0CFFAC41#0000000000000000
(1475151982.841509) can0 0CFFAE41#0820025800000000
(1475151982.861865) can0 1CFFC0F7#0000000002580000
(1475151982.862201) can0 18FFD1F7#04B104B104B10000
(1475151982.862443) can0 18FFD0F7#006D006D006D0000
(1475151982.862741) can0 18FFC9F7#0820025800000000
(1475151982.862973) can0 1CFFC6F7#FA3F00000027003A
(1475151982.863334) can0 1CFFC7F7#018F0190FF4A0000
(1475151982.863616) can0 0CFFC2F7#0820006A02580000
(1475151982.863885) can0 0CFFC8F7#00000000010F000F
(1475151982.864162) can0 18FFCBF7#0104FCA6057B0000
(1475151982.864417) can0 1CFFC5F7#01F3014B099E05DD
(1475151982.864724) can0 0CFFC3F7#1255401550504001
(1475151982.864972) can0 18FFC4F7#0000000000000000
(1475151982.865319) can0 0CFFCAF7#00006D9600000920
(1475151982.932857) can0 00FFAB41#0100000000000001
(1475151982.937087) can0 0CFFAC41#0000000000000000
(1475151982.941251) can0 0CFFAE41#0820025800000000
(1475151982.961861) can0 1CFFC0F7#0000000002580000
(1475151982.962110) can0 18FFD1F7#04B104B104B10000
(1475151982.962424) can0 18FFD0F7#006D006D006D0000
(1475151982.962710) can0 18FFC9F7#0820025800000000
(1475151982.962961) can0 1CFFC6F7#FA42000000260032
(1475151982.963291) can0 1CFFC7F7#005D0190FFD90000
(1475151982.963560) can0 0CFFC2F7#0820006A02580000
(1475151982.963839) can0 0CFFC8F7#00000000010F000F
(1475151982.964169) can0 18FFCBF7#0104FCA604680000
(1475151982.964407) can0 1CFFC5F7#01F3014B099D05DB
(1475151982.964702) can0 0CFFC3F7#1255401550504001
(1475151982.964983) can0 18FFC4F7#0000000000000000
(1475151982.965268) can0 0CFFCAF7#00007256000008BB
(1475151983.033175) can0 00FFAB41#0100000000000001
(1475151983.037254) can0 0CFFAC41#0000000000000000
(1475151983.041417) can0 0CFFAE41#0820025800000000
(1475151983.061907) can0 1CFFC0F7#0000000002580000
(1475151983.062174) can0 18FFD1F7#04B104B104B10000
(1475151983.062444) can0 18FFD0F7#006D006D006D0000
(1475151983.062757) can0 18FFC9F7#0820025800000000
(1475151983.063020) can0 1CFFC6F7#FA4000000025002D
(1475151983.063334) can0 1CFFC7F7#00510190FFDC0000
(1475151983.063635) can0 0CFFC2F7#0820006A02580000
(1475151983.063948) can0 0CFFC8F7#00000000010F000F
(1475151983.064189) can0 18FFCBF7#0104FCA603D00000
(1475151983.064436) can0 1CFFC5F7#01F3014B099E05DC
(1475151983.064724) can0 0CFFC3F7#1255401550504001
(1475151983.065041) can0 18FFC4F7#0000000000000000
(1475151983.065320) can0 0CFFCAF7#0000768700000862
(1475151983.137515) can0 00FFAB41#0100000000000001
(1475151983.141597) can0 0CFFAC41#0000000000000000
(1475151983.145715) can0 0CFFAE41#0820025800000000
(1475151983.161824) can0 1CFFC0F7#0000000002580000
(1475151983.162097) can0 18FFD1F7#04B104B104B10000
(1475151983.162427) can0 18FFD0F7#006D006D006D0000
(1475151983.162712) can0 18FFC9F7#0820025800000000
(1475151983.162952) can0 1CFFC6F7#FA3F00000025002A
(1475151983.163289) can0 1CFFC7F7#004F0190FFDC0000
(1475151983.163544) can0 0CFFC2F7#0820006A02580000
(1475151983.163888) can0 0CFFC8F7#00000000010F000F
(1475151983.164182) can0 18FFCBF7#0104FCA603B10000
(1475151983.164504) can0 1CFFC5F7#01F3014B099C05DE
(1475151983.164828) can0 0CFFC3F7#1255401550504001
(1475151983.165165) can0 18FFC4F7#0000000000000000
(1475151983.165446) can0 0CFFCAF7#00007A3900000814
(1475151983.233194) can0 00FFAB41#0100000000000001
(1475151983.237281) can0 0CFFAC41#0000000000000000
(1475151983.241518) can0 0CFFAE41#0820025800000000
(1475151983.261815) can0 1CFFC0F7#0000000002580000
(1475151983.262177) can0 18FFD1F7#04B104B104B10000
(1475151983.262463) can0 18FFD0F7#006D006D006D0000
(1475151983.262748) can0 18FFC9F7#0820025800000000
(1475151983.262985) can0 1CFFC6F7#FA43000000250028
(1475151983.263281) can0 1CFFC7F7#004F0190FFDC0000
(1475151983.263572) can0 0CFFC2F7#0820006A02580000
(1475151983.263858) can0 0CFFC8F7#00000000010F000F
(1475151983.264113) can0 18FFCBF7#0104FCA603AB0000
(1475151983.264388) can0 1CFFC5F7#01F3014B099D05DD
(1475151983.264738) can0 0CFFC3F7#1255401550504001
(1475151983.264988) can0 18FFC4F7#0000000000000000
(1475151983.265283) can0 0CFFCAF7#00007D7B000007CE
(1475151983.332857) can0 00FFAB41#0100000000000001
(1475151983.337048) can0 0CFFAC41#0000000000000000
(1475151983.341236) can0 0CFFAE41#0820025800000000
(1475151983.361907) can0 1CFFC0F7#0000000002580000
(1475151983.362185) can0 18FFD1F7#04B104B104B10000
(1475151983.362432) can0 18FFD0F7#006D006D006D0000
(1475151983.362727) can0 18FFC9F7#0820025800000000
(1475151983.363002) can0 1CFFC6F7#FA3F000000270034
(1475151983.363316) can0 1CFFC7F7#01A30190FF4B0000
(1475151983.363571) can0 0CFFC2F7#0820006A02580000
(1475151983.363831) can0 0CFFC8F7#00000000010F000F
(1475151983.364243) can0 18FFCBF7#0104FCA6051C0000
(1475151983.364451) can0 1CFFC5F7#01F3014B099D05DE
(1475151983.364789) can0 0CFFC3F7#1255401550504001
(1475151983.365029) can0 18FFC4F7#0000000000000000
(1475151983.365341) can0 0CFFCAF7#0000805B00000791
(1475151983.433067) can0 00FFAB41#0100000000000001
(1475151983.437297) can0 0CFFAC41#0000000000000000
(1475151983.441527) can0 0CFFAE41#0820025800000000
(1475151983.461817) can0 1CFFC0F7#0000000002580000
(1475151983.462093) can0 18FFD1F7#04B104B104B10000
(1475151983.462377) can0 18FFD0F7#006D006D006D0000
(1475151983.462706) can0 18FFC9F7#0820025800000000
(1475151983.462978) can0 1CFFC6F7#FA42000000280039
(1475151983.463262) can0 1CFFC7F7#01900190FF4A0000
(1475151983.463544) can0 0CFFC2F7#0820006A02580000
(1475151983.463810) can0 0CFFC8F7#00000000010F000F
(1475151983.464137) can0 18FFCBF7#0104FCA605700000
(1475151983.464422) can0 1CFFC5F7#01F3014B099E05DB
(1475151983.464699) can0 0CFFC3F7#1255401550504001
(1475151983.464980) can0 18FFC4F7#0000000000000000
(1475151983.465262) can0 0CFFCAF7#000082E40000075B
(1475151983.533043) can0 00FFAB41#0100000000000001
(1475151983.538857) can0 0CFFAC41#0000000000000000
(1475151983.542986) can0 0CFFAE41#0820025800000000
(1475151983.561861) can0 1CFFC0F7#0000000002580000
(1475151983.562143) can0 18FFD1F7#04B104B104B10000
(1475151983.562455) can0 18FFD0F7#006D006D006D0000
(1475151983.562728) can0 18FFC9F7#0820025800000000
(1475151983.562952) can0 1CFFC6F7#FA40000000280038
(1475151983.563311) can0 1CFFC7F7#01830190FF9A0000
(1475151983.563549) can0 0CFFC2F7#0820006A02580000
(1475151983.563831) can0 0CFFC8F7#00000000010F000F
(1475151983.564171) can0 18FFCBF7#0104FCA6053A0000
(1475151983.564408) can0 1CFFC5F7#01F3014B099D05DD
(1475151983.564748) can0 0CFFC3F7#1255401550504001
(1475151983.565011) can0 18FFC4F7#0000000000000000
(1475151983.565312) can0 0CFFCAF7#000085200000072B
(1475151983.636860) can0 00FFAB41#0100000000000001
(1475151983.640903) can0 0CFFAC41#0000000000000000
(1475151983.645010) can0 0CFFAE41#0820025800000000
(1475151983.661820) can0 1CFFC0F7#0000000002580000
(1475151983.662185) can0 18FFD1F7#04B104B104B10000
(1475151983.662446) can0 18FFD0F7#006D006D006D0000
(1475151983.662725) can0 18FFC9F7#0820025800000000
(1475151983.663006) can0 1CFFC6F7#FA42000000260030
(1475151983.663283) can0 1CFFC7F7#004C0190FFDC0000
(1475151983.663575) can0 0CFFC2F7#0820006A02580000
(1475151983.663849) can0 0CFFC8F7#00000000010F000F
(1475151983.664163) can0 18FFCBF7#0104FCA603FB0000
(1475151983.664426) can0 1CFFC5F7#01F3014B099D05DD
(1475151983.664743) can0 0CFFC3F7#1255401550504001
(1475151983.665039) can0 18FFC4F7#0000000000000000
(1475151983.665287) can0 0CFFCAF7#0000871800000701
(1475151983.733587) can0 00FFAB41#0100000000000001
(1475151983.737685) can0 0CFFAC41#0000000000000000
(1475151983.741860) can0 0CFFAE41#0820025800000000
(1475151983.761912) can0 1CFFC0F7#0000000002580000
(1475151983.762210) can0 18FFD1F7#04B104B104B10000
(1475151983.762470) can0 18FFD0F7#006D006D006D0000
(1475151983.762732) can0 18FFC9F7#0820025800000000
(1475151983.762983) can0 1CFFC6F7#FA3F00000026002C
(1475151983.763270) can0 1CFFC7F7#004F0190FFDC0000
(1475151983.763579) can0 0CFFC2F7#0820006A02580000
(1475151983.763911) can0 0CFFC8F7#00000000010F000F
(1475151983.764177) can0 18FFCBF7#0104FCA603BB0000
(1475151983.764468) can0 1CFFC5F7#01F3014B099D05DC
(1475151983.764746) can0 0CFFC3F7#1255401550504001
(1475151983.765029) can0 18FFC4F7#0000000000000000
(1475151983.765295) can0 0CFFCAF7#000088D5000006DC
(1475151983.833321) can0 00FFAB41#0100000000000001
(1475151983.837475) can0 0CFFAC41#0000000000000000
(1475151983.841669) can0 0CFFAE41#0820025800000000
(1475151983.861903) can0 1CFFC0F7#0000000002580000
(1475151983.862179) can0 18FFD1F7#04B104B104B10000
(1475151983.862492) can0 18FFD0F7#006D006D006D0000
(1475151983.862769) can0 18FFC9F7#0820025800000000
(1475151983.863107) can0 1CFFC6F7#FA4200000025002A
(1475151983.863383) can0 1CFFC7F7#004F0190FFDC0000
(1475151983.863746) can0 0CFFC2F7#0820006A02580000
(1475151983.864026) can0 0CFFC8F7#00000000010F000F
(1475151983.864371) can0 18FFCBF7#0104FCA603AD0000
(1475151983.864700) can0 1CFFC5F7#01F3014C099D05DC
(1475151983.864709) can0 0CFFC3F7#1255401550504001
(1475151983.864993) can0 18FFC4F7#0000000000000000
(1475151983.865224) can0 0CFFCAF7#00008A5E000006BC
(1475151983.933137) can0 00FFAB41#0100000000000001
(1475151983.937417) can0 0CFFAC41#0000000000000000
(1475151983.941541) can0 0CFFAE41#0820025800000000
(1475151983.961910) can0 1CFFC0F7#0000000002580000
(1475151983.962149) can0 18FFD1F7#04B104B104B10000
(1475151983.962412) can0 18FFD0F7#006D006D006D0000
(1475151983.962698) can0 18FFC9F7#0820025800000000
(1475151983.962996) can0 1CFFC6F7#FA40000000270032
(1475151983.963308) can0 1CFFC7F7#01600190FF4F0000
(1475151983.963567) can0 0CFFC2F7#0820006B02580000
(1475151983.963943) can0 0CFFC8F7#00000000010F000F
(1475151983.964156) can0 18FFCBF7#0104FCA604BC0000
(1475151983.964499) can0 1CFFC5F7#01F3014B099D05DC
(1475151983.964740) can0 0CFFC3F7#1255401550504001
(1475151983.965078) can0 18FFC4F7#0000000000000000
(1475151983.965308) can0 0CFFCAF7#00008BB80000069F
(1475151984.032577) can0 00FFAB41#0100000000000001
(1475151984.036960) can0 0CFFAC41#0000000000000000
(1475151984.041132) can0 0CFFAE41#0820025800000000
(1475151984.061884) can0 1CFFC0F7#0000000002580000
(1475151984.062161) can0 18FFD1F7#04B104B104B10000
(1475151984.062444) can0 18FFD0F7#006D006D006D0000
(1475151984.062729) can0 18FFC9F7#0820025800000000
(1475151984.062998) can0 1CFFC6F7#FA3F000000280038
(1475151984.063309) can0 1CFFC7F7#018C0190FF4A0000
(1475151984.063586) can0 0CFFC2F7#0820006B02580000
(1475151984.063880) can0 0CFFC8F7#00000000010F000F
(1475151984.064147) can0 18FFCBF7#0104FCA6055D0000
(1475151984.064429) can0 1CFFC5F7#01F3014B099C05DC
(1475151984.064723) can0 0CFFC3F7#1255401550504001
(1475151984.065027) can0 18FFC4F7#0000000000000000
(1475151984.065324) can0 0CFFCAF7#00008CE900000685
(1475151984.137413) can0 00FFAB41#0100000000000001
(1475151984.141779) can0 0CFFAC41#0000000000000000
(1475151984.145953) can0 0CFFAE41#0820025800000000
(1475151984.161824) can0 1CFFC0F7#0000000002580000
(1475151984.162124) can0 18FFD1F7#04B104B104B10000
(1475151984.162417) can0 18FFD0F7#006D006D006D0000
(1475151984.162695) can0 18FFC9F7#0820025800000000
(1475151984.162970) can0 1CFFC6F7#FA3F00000029003C
(1475151984.163276) can0 1CFFC7F7#018F0190FF4A0000
(1475151984.163562) can0 0CFFC2F7#0820006B02580000
(1475151984.163905) can0 0CFFC8F7#00000000010F000F
(1475151984.164151) can0 18FFCBF7#0104FCA6057E0000
(1475151984.164451) can0 1CFFC5F7#01F3014B099D05DD
(1475151984.164792) can0 0CFFC3F7#1255401550504001
(1475151984.165012) can0 18FFC4F7#0000000000000000
(1475151984.165346) can0 0CFFCAF7#00008DF60000066F
(1475151984.232899) can0 00FFAB41#0100000000000001
(1475151984.237002) can0 0CFFAC41#0000000000000000
(1475151984.241609) can0 0CFFAE41#0820025800000000
(1475151984.261804) can0 1CFFC0F7#0000000002580000
(1475151984.262083) can0 18FFD1F7#04B104B104B10000
(1475151984.262419) can0 18FFD0F7#006D006D006D0000
(1475151984.262705) can0 18FFC9F7#0820025800000000
(1475151984.262999) can0 1CFFC6F7#FA43000000270033
(1475151984.263283) can0 1CFFC7F7#003E0190FFDA0000
(1475151984.263551) can0 0CFFC2F7#0820006B02580000
(1475151984.263897) can0 0CFFC8F7#00000000010F000F
(1475151984.264147) can0 18FFCBF7#0104FCA6044A0000
(1475151984.264511) can0 1CFFC5F7#01F3014B099D05DB
(1475151984.264844) can0 0CFFC3F7#1255401550504001
(1475151984.265182) can0 18FFC4F7#0000000000000000
(1475151984.265504) can0 0CFFCAF7#00008EE30000065B
(1475151984.333347) can0 00FFAB41#0100000000000001
(1475151984.337519) can0 0CFFAC41#0000000000000000
(1475151984.341690) can0 0CFFAE41#0820025800000000
(1475151984.361896) can0 1CFFC0F7#0000000002580000
(1475151984.362189) can0 18FFD1F7#04B104B104B10000
(1475151984.362453) can0 18FFD0F7#006D006D006D0000
(1475151984.362738) can0 18FFC9F7#0820025800000000
(1475151984.363021) can0 1CFFC6F7#FA4000000026002E
(1475151984.363331) can0 1CFFC7F7#00500190FFDC0000
(1475151984.363614) can0 0CFFC2F7#0820006B02580000
(1475151984.363888) can0 0CFFC8F7#00000000010F000F
(1475151984.364168) can0 18FFCBF7#0104FCA603CB0000
(1475151984.364505) can0 1CFFC5F7#01F3014C099D05DE
(1475151984.364818) can0 0CFFC3F7#1255401550504001
(1475151984.365117) can0 18FFC4F7#0000000000000000
(1475151984.365371) can0 0CFFCAF7#00008FB400000649
(1475151984.432954) can0 00FFAB41#0100000000000001
(1475151984.437104) can0 0CFFAC41#0000000000000000
(1475151984.441325) can0 0CFFAE41#0820025800000000
(1475151984.461844) can0 1CFFC0F7#0000000002580000
(1475151984.462127) can0 18FFD1F7#04B104B104B10000
(1475151984.462437) can0 18FFD0F7#006D006D006D0000
(1475151984.462715) can0 18FFC9F7#0820025800000000
(1475151984.462998) can0 1CFFC6F7#FA4500000026002B
(1475151984.463279) can0 1CFFC7F7#004F0190FFDC0000
(1475151984.463558) can0 0CFFC2F7#0820006B02580000
(1475151984.463840) can0 0CFFC8F7#00000000010F000F
(1475151984.464135) can0 18FFCBF7#0104FCA603B10000
(1475151984.464410) can0 1CFFC5F7#01F3014B099E05DC
(1475151984.464715) can0 0CFFC3F7#1255401550504001
(1475151984.464994) can0 18FFC4F7#0000000000000000
(1475151984.465275) can0 0CFFCAF7#0000906D0000063A
(1475151984.533446) can0 00FFAB41#0100000000000001
(1475151984.539307) can0 0CFFAC41#0000000000000000
(1475151984.550365) can0 0CFFAE41#0820025800000000
(1475151984.561881) can0 1CFFC0F7#0000000002580000
(1475151984.562109) can0 18FFD1F7#04B104B104B10000
(1475151984.562491) can0 18FFD0F7#006D006D006D0000
(1475151984.562730) can0 18FFC9F7#0820025800000000
(1475151984.563003) can0 1CFFC6F7#FA3D00000027002D
(1475151984.563274) can0 1CFFC7F7#00510190FFAD0000
(1475151984.563562) can0 0CFFC2F7#0820006B02580000
(1475151984.563866) can0 0CFFC8F7#00000000010F000F
(1475151984.564112) can0 18FFCBF7#0104FCA603E60000
(1475151984.564386) can0 1CFFC5F7#01F3014B099E05DD
(1475151984.564694) can0 0CFFC3F7#1255401550504001
(1475151984.564973) can0 18FFC4F7#0000000000000000
(1475151984.565249) can0 0CFFCAF7#000091100000062C
(1475151984.637225) can0 00FFAB41#0100000000000001
(1475151984.641268) can0 0CFFAC41#0000000000000000
(1475151984.645401) can0 0CFFAE41#0820025800000000
(1475151984.661892) can0 1CFFC0F7#0000000002580000
(1475151984.662140) can0 18FFD1F7#04B104B104B10000
(1475151984.662450) can0 18FFD0F7#006D006D006D0000
(1475151984.662718) can0 18FFC9F7#0820025800000000
(1475151984.662946) can0 1CFFC6F7#FA42000000280036
(1475151984.663295) can0 1CFFC7F7#01970190FF4A0000
(1475151984.663561) can0 0CFFC2F7#0820006B02580000
(1475151984.663791) can0 0CFFC8F7#00000000010F000F
(1475151984.664172) can0 18FFCBF7#0104FCA605310000
(1475151984.664419) can0 1CFFC5F7#01F3014B099D05DB
(1475151984.664732) can0 0CFFC3F7#1255401550504001
(1475151984.664955) can0 18FFC4F7#0000000000000000
(1475151984.665248) can0 0CFFCAF7#0000919F00000620
(1475151984.732768) can0 00FFAB41#0100000000000001
(1475151984.736902) can0 0CFFAC41#0000000000000000
(1475151984.741074) can0 0CFFAE41#0820025800000000
(1475151984.761823) can0 1CFFC0F7#0000000002580000
(1475151984.762142) can0 18FFD1F7#04B104B104B10000
(1475151984.762409) can0 18FFD0F7#006D006D006D0000
(1475151984.762693) can0 18FFC9F7#0820025800000000
(1475151984.762934) can0 1CFFC6F7#FA4000000029003B
(1475151984.763244) can0 1CFFC7F7#01900190FF4A0000
(1475151984.763517) can0 0CFFC2F7#0820006B02580000
(1475151984.763805) can0 0CFFC8F7#00000000010F000F
(1475151984.764114) can0 18FFCBF7#0104FCA605750000
(1475151984.764357) can0 1CFFC5F7#01F3014B099D05DE
(1475151984.764666) can0 0CFFC3F7#1255401550504001
(1475151984.764930) can0 18FFC4F7#0000000000000000
(1475151984.765278) can0 0CFFCAF7#0000921E00000616
(1475151984.832812) can0 00FFAB41#0100000000000001
(1475151984.836955) can0 0CFFAC41#0000000000000000
(1475151984.841165) can0 0CFFAE41#0820025800000000
(1475151984.861801) can0 1CFFC0F7#0000000002580000
(1475151984.862118) can0 18FFD1F7#04B104B104B10000
(1475151984.862402) can0 18FFD0F7#006D006D006D0000
(1475151984.862720) can0 18FFC9F7#0820025800000000
(1475151984.863004) can0 1CFFC6F7#FA3F000000280038
(1475151984.863288) can0 1CFFC7F7#014F0190FFBB0000
(1475151984.863541) can0 0CFFC2F7#0820006B02580000
(1475151984.863829) can0 0CFFC8F7#00000000010F000F
(1475151984.864066) can0 18FFCBF7#0104FCA604FA0000
(1475151984.864399) can0 1CFFC5F7#01F3014B099D05DE
(1475151984.864698) can0 0CFFC3F7#1255401550504001
(1475151984.864959) can0 18FFC4F7#0000000000000000
(1475151984.865222) can0 0CFFCAF7#0000928E0000060C
(1475151984.933040) can0 00FFAB41#0100000000000001
(1475151984.937263) can0 0CFFAC41#0000000000000000
(1475151984.941417) can0 0CFFAE41#0820025800000000
(1475151984.961808) can0 1CFFC0F7#0000000002580000
(1475151984.962122) can0 18FFD1F7#04B104B104B10000
(1475151984.962406) can0 18FFD0F7#006D006D006D0000
(1475151984.962671) can0 18FFC9F7#0820025800000000
(1475151984.962997) can0 1CFFC6F7#FA3F000000270030
(1475151984.963281) can0 1CFFC7F7#00520190FFDC0000
(1475151984.963565) can0 0CFFC2F7#0820006B02580000
(1475151984.963837) can0 0CFFC8F7#00000000010F000F
(1475151984.964076) can0 18FFCBF7#0104FCA603EF0000
(1475151984.964388) can0 1CFFC5F7#01F3014B099D05DE
(1475151984.964669) can0 0CFFC3F7#1255401550504001
(1475151984.964952) can0 18FFC4F7#0000000000000000
(1475151984.965212) can0 0CFFCAF7#000092F000000604
(1475151985.033022) can0 00FFAB41#0100000000000001
(1475151985.037089) can0 0CFFAC41#0000000000000000
(1475151985.041251) can0 0CFFAE41#0820025800000000
(1475151985.061888) can0 1CFFC0F7#0000000002580000
(1475151985.062168) can0 18FFD1F7#04B104B104B10000
(1475151985.062456) can0 18FFD0F7#006D006D006D0000
(1475151985.062731) can0 18FFC9F7#0820025800000000
(1475151985.063005) can0 1CFFC6F7#FA4000000026002D
(1475151985.063282) can0 1CFFC7F7#004F0190FFDB0000
(1475151985.063545) can0 0CFFC2F7#0820006B02580000
(1475151985.063834) can0 0CFFC8F7#00000000010F000F
(1475151985.064136) can0 18FFCBF7#0104FCA603B80000
(1475151985.064413) can0 1CFFC5F7#01F3014B099E05DA
(1475151985.064701) can0 0CFFC3F7#1255401550504001
(1475151985.064961) can0 18FFC4F7#0000000000000000
(1475151985.065294) can0 0CFFCAF7#00009347000005FD
(1475151985.137166) can0 00FFAB41#0100000000000001
(1475151985.141198) can0 0CFFAC41#0000000000000000
(1475151985.145339) can0 0CFFAE41#0820025800000000
(1475151985.161811) can0 1CFFC0F7#0000000002580000
(1475151985.162134) can0 18FFD1F7#04B104B104B10000
(1475151985.162415) can0 18FFD0F7#006D006D006D0000
(1475151985.162709) can0 18FFC9F7#0820025800000000
(1475151985.162993) can0 1CFFC6F7#FA4200000026002B
(1475151985.163258) can0 1CFFC7F7#004F0190FFDB0000
(1475151985.163526) can0 0CFFC2F7#0820006B02580000
(1475151985.163845) can0 0CFFC8F7#00000000010F000F
(1475151985.164133) can0 18FFCBF7#0104FCA603AD0000
(1475151985.164401) can0 1CFFC5F7#01F3014B099D05DC
(1475151985.164664) can0 0CFFC3F7#1255401550504001
(1475151985.164936) can0 18FFC4F7#0000000000000000
(1475151985.165257) can0 0CFFCAF7#00009394000005F6
(1475151985.233850) can0 00FFAB41#0100000000000001
(1475151985.237925) can0 0CFFAC41#0000000000000000
(1475151985.242171) can0 0CFFAE41#0820025800000000
(1475151985.261824) can0 1CFFC0F7#0000000002580000
(1475151985.262153) can0 18FFD1F7#04B104B104B10000
(1475151985.262494) can0 18FFD0F7#006D006D006D0000
(1475151985.262784) can0 18FFC9F7#0820025800000000
(1475151985.263082) can0 1CFFC6F7#FA40000000280033
(1475151985.263370) can0 1CFFC7F7#018A0190FF4D0000
(1475151985.263742) can0 0CFFC2F7#0820006B02580000
(1475151985.264029) can0 0CFFC8F7#00000000010F000F
(1475151985.264397) can0 18FFCBF7#0104FCA604D80000
(1475151985.264398) can0 1CFFC5F7#01F3014B099E05DE
(1475151985.264706) can0 0CFFC3F7#1255401550504001
(1475151985.264978) can0 18FFC4F7#0000000000000000
(1475151985.265236) can0 0CFFCAF7#000093D7000005F1
(1475151985.333213) can0 00FFAB41#0100000000000001
(1475151985.337647) can0 0CFFAC41#0000000000000000
(1475151985.341885) can0 0CFFAE41#0820025800000000
(1475151985.361808) can0 1CFFC0F7#0000000002580000
(1475151985.362140) can0 18FFD1F7#04B104B104B10000
(1475151985.362419) can0 18FFD0F7#006D006D006D0000
(1475151985.362662) can0 18FFC9F7#0820025800000000
(1475151985.362988) can0 1CFFC6F7#FA3F00000029003A
(1475151985.363272) can0 1CFFC7F7#018E0190FF4A0000
(1475151985.363569) can0 0CFFC2F7#0820006B02580000
(1475151985.363867) can0 0CFFC8F7#00000000010F000F
(1475151985.364144) can0 18FFCBF7#0104FCA605620000
(1475151985.364438) can0 1CFFC5F7#01F3014B099E05DC
(1475151985.364700) can0 0CFFC3F7#1255401550504001
(1475151985.364948) can0 18FFC4F7#0000000000000000
(1475151985.365239) can0 0CFFCAF7#00009412000005EC
(1475151985.433182) can0 00FFAB41#0100000000000001
(1475151985.437656) can0 0CFFAC41#0000000000000000
(1475151985.441859) can0 0CFFAE41#0820025800000000
(1475151985.461805) can0 1CFFC0F7#0000000002580000
(1475151985.462084) can0 18FFD1F7#04B104B104B10000
(1475151985.462414) can0 18FFD0F7#006D006D006D0000
(1475151985.462692) can0 18FFC9F7#0820025800000000
(1475151985.462926) can0 1CFFC6F7#FA3D00000029003D
(1475151985.463287) can0 1CFFC7F7#018F0190FF4A0000
(1475151985.463520) can0 0CFFC2F7#0820006B02580000
(1475151985.463834) can0 0CFFC8F7#00000000010F000F
(1475151985.464172) can0 18FFCBF7#0104FCA6057F0000
(1475151985.464412) can0 1CFFC5F7#01F3014B099D05DD
(1475151985.464715) can0 0CFFC3F7#1255401550504001
(1475151985.464986) can0 18FFC4F7#0000000000000000
(1475151985.465312) can0 0CFFCAF7#00009447000005E8
(1475151985.533650) can0 00FFAB41#0100000000000001
(1475151985.537787) can0 0CFFAC41#0000000000000000
(1475151985.542272) can0 0CFFAE41#0820025800000000
(1475151985.561882) can0 1CFFC0F7#0000000002580000
(1475151985.562154) can0 18FFD1F7#04B104B104B10000
(1475151985.562517) can0 18FFD0F7#006D006D006D0000
(1475151985.562852) can0 18FFC9F7#0820025800000000
(1475151985.563192) can0 1CFFC6F7#FA40000000280034
(1475151985.563503) can0 1CFFC7F7#00360190FFDA0000
(1475151985.563503) can0 0CFFC2F7#0820006B02580000
(1475151985.563908) can0 0CFFC8F7#00000000010F000F
(1475151985.564132) can0 18FFCBF7#0104FCA604390000
(1475151985.564386) can0 1CFFC5F7#01F3014B099D05DD
(1475151985.564728) can0 0CFFC3F7#1255401550504001
(1475151985.565009) can0 18FFC4F7#0000000000000000
(1475151985.565283) can0 0CFFCAF7#00009475000005E4
(1475151985.637015) can0 00FFAB41#0100000000000001
(1475151985.641007) can0 0CFFAC41#0000000000000000
(1475151985.645320) can0 0CFFAE41#0820025800000000
(1475151985.661881) can0 1CFFC0F7#0000000002580000
(1475151985.662159) can0 18FFD1F7#04B104B104B10000
(1475151985.662479) can0 18FFD0F7#006D006D006D0000
(1475151985.662827) can0 18FFC9F7#0820025800000000
(1475151985.663123) can0 1CFFC6F7#FA4300000027002E
(1475151985.663515) can0 1CFFC7F7#004F0190FFDB0000
(1475151985.663863) can0 0CFFC2F7#0820006B02580000
(1475151985.663863) can0 0CFFC8F7#00000000010F000F
(1475151985.664135) can0 18FFCBF7#0104FCA603C70000
(1475151985.664360) can0 1CFFC5F7#01F3014B099E05DD
(1475151985.664660) can0 0CFFC3F7#1255401550504001
(1475151985.664962) can0 18FFC4F7#0000000000000000
(1475151985.665242) can0 0CFFCAF7#0000949E000005E0
(1475151985.733595) can0 00FFAB41#0100000000000001
(1475151985.737751) can0 0CFFAC41#0000000000000000
(1475151985.741907) can0 0CFFAE41#0820025800000000
(1475151985.761851) can0 1CFFC0F7#0000000002580000
(1475151985.762141) can0 18FFD1F7#04B104B104B10000
(1475151985.762444) can0 18FFD0F7#006D006D006D0000
(1475151985.762746) can0 18FFC9F7#0820025800000000
(1475151985.762987) can0 1CFFC6F7#FA4000000026002C
(1475151985.763264) can0 1CFFC7F7#004F0190FFDB0000
(1475151985.763590) can0 0CFFC2F7#0820006B02580000
(1475151985.763927) can0 0CFFC8F7#00000000010F000F
(1475151985.764219) can0 18FFCBF7#0104FCA603B00000
(1475151985.764508) can0 1CFFC5F7#01F3014B099E05DC
(1475151985.764740) can0 0CFFC3F7#1255401550504001
(1475151985.765005) can0 18FFC4F7#0000000000000000
(1475151985.765305) can0 0CFFCAF7#000094C2000005DD
(1475151985.833247) can0 00FFAB41#0100000000000001
(1475151985.837366) can0 0CFFAC41#0000000000000000
(1475151985.841565) can0 0CFFAE41#0820025800000000
(1475151985.861789) can0 1CFFC0F7#0000000002580000
(1475151985.862063) can0 18FFD1F7#04B104B104B10000
(1475151985.862414) can0 18FFD0F7#006D006D006D0000
(1475151985.862689) can0 18FFC9F7#0820025800000000
(1475151985.862970) can0 1CFFC6F7#FA3F00000027002E
(1475151985.863254) can0 1CFFC7F7#00580190FF930000
(1475151985.863556) can0 0CFFC2F7#0820006B02580000
(1475151985.863909) can0 0CFFC8F7#00000000010F000F
(1475151985.864213) can0 18FFCBF7#0104FCA604060000
(1475151985.864418) can0 1CFFC5F7#01F3014B099C05DD
(1475151985.864669) can0 0CFFC3F7#1255401550504001
(1475151985.865009) can0 18FFC4F7#0000000000000000
(1475151985.865304) can0 0CFFCAF7#000094E2000005DB
(1475151985.932641) can0 00FFAB41#0100000000000001
(1475151985.936878) can0 0CFFAC41#0000000000000000
(1475151985.941013) can0 0CFFAE41#0820025800000000
(1475151985.961841) can0 1CFFC0F7#0000000002580000
(1475151985.962171) can0 18FFD1F7#04B104B104B10000
(1475151985.962509) can0 18FFD0F7#006D006D006D0000
(1475151985.962835) can0 18FFC9F7#0820025800000000
(1475151985.963152) can0 1CFFC6F7#FA3F000000280037
(1475151985.963493) can0 1CFFC7F7#01930190FF4A0000
(1475151985.963494) can0 0CFFC2F7#0820006B02580000
(1475151985.963848) can0 0CFFC8F7#00000000010F000F
(1475151985.964143) can0 18FFCBF7#0104FCA605370000
(1475151985.964378) can0 1CFFC5F7#01F3014B099C05DD
(1475151985.964689) can0 0CFFC3F7#1255401550504001
(1475151985.964947) can0 18FFC4F7#0000000000000000
(1475151985.965282) can0 0CFFCAF7#000094FF000005D8
(1475151986.033107) can0 00FFAB41#0100000000000001
(1475151986.037305) can0 0CFFAC41#0000000000000000
(1475151986.041437) can0 0CFFAE41#0820025800000000
(1475151986.061863) can0 1CFFC0F7#0000000002580000
(1475151986.062093) can0 18FFD1F7#04B104B104B10000
(1475151986.062452) can0 18FFD0F7#006D006D006D0000
(1475151986.062700) can0 18FFC9F7#0820025800000000
(1475151986.062986) can0 1CFFC6F7#FA3F00000029003C
(1475151986.063301) can0 1CFFC7F7#01900190FF4A0000
(1475151986.063582) can0 0CFFC2F7#0820006B02580000
(1475151986.063932) can0 0CFFC8F7#00000000010F000F
(1475151986.064154) can0 18FFCBF7#0104FCA605760000
(1475151986.064423) can0 1CFFC5F7#01F3014B099D05DD
(1475151986.064703) can0 0CFFC3F7#1255401550504001
(1475151986.064982) can0 18FFC4F7#0000000000000000
(1475151986.065248) can0 0CFFCAF7#00009518000005D6
(1475151986.137607) can0 00FFAB41#0100000000000001
(1475151986.141688) can0 0CFFAC41#0000000000000000
(1475151986.145828) can0 0CFFAE41#0820025800000000
(1475151986.161847) can0 1CFFC0F7#0000000002580000
(1475151986.162177) can0 18FFD1F7#04B104B104B10000
(1475151986.162402) can0 18FFD0F7#006D006D006D0000
(1475151986.162709) can0 18FFC9F7#0820025800000000
(1475151986.162996) can0 1CFFC6F7#FA40000000290039
(1475151986.163283) can0 1CFFC7F7#01500190FFBA0000
(1475151986.163521) can0 0CFFC2F7#0820006B02580000
(1475151986.163815) can0 0CFFC8F7#00000000010F000F
(1475151986.164110) can0 18FFCBF7#0104FCA604FB0000
(1475151986.164429) can0 1CFFC5F7#01F3014B099C05DB
(1475151986.164697) can0 0CFFC3F7#1255401550504001
(1475151986.164982) can0 18FFC4F7#0000000000000000
(1475151986.165234) can0 0CFFCAF7#0000952E000005D7
(1475151986.233075) can0 00FFAB41#0100000000000001
(1475151986.237165) can0 0CFFAC41#0000000000000000
(1475151986.241390) can0 0CFFAE41#0820025800000000
(1475151986.261807) can0 1CFFC0F7#0000000002580000
(1475151986.262129) can0 18FFD1F7#04B104B104B10000
(1475151986.262416) can0 18FFD0F7#006D006D006D0000
(1475151986.262699) can0 18FFC9F7#0820025800000000
(1475151986.262976) can0 1CFFC6F7#FA42000000270031
(1475151986.263262) can0 1CFFC7F7#00520190FFDB0000
(1475151986.263530) can0 0CFFC2F7#0820006B02580000
(1475151986.263813) can0 0CFFC8F7#00000000010F000F
(1475151986.264085) can0 18FFCBF7#0104FCA603EF0000
(1475151986.264384) can0 1CFFC5F7#01F3014B099D05DB
(1475151986.264710) can0 0CFFC3F7#1255401550504001
(1475151986.265009) can0 18FFC4F7#0000000000000000
(1475151986.265278) can0 0CFFCAF7#00009541000005D3
(1475151986.333072) can0 00FFAB41#0100000000000001
(1475151986.337248) can0 0CFFAC41#0000000000000000
(1475151986.341425) can0 0CFFAE41#0820025800000000
(1475151986.361861) can0 1CFFC0F7#0000000002580000
(1475151986.362119) can0 18FFD1F7#04B104B104B10000
(1475151986.362418) can0 18FFD0F7#006D006D006D0000
(1475151986.362696) can0 18FFC9F7#0820025800000000
(1475151986.362973) can0 1CFFC6F7#FA4200000027002D
(1475151986.363283) can0 1CFFC7F7#004F0190FFDB0000
(1475151986.363527) can0 0CFFC2F7#0820006B02580000
(1475151986.363833) can0 0CFFC8F7#00000000010F000F
(1475151986.364125) can0 18FFCBF7#0104FCA603B80000
(1475151986.364387) can0 1CFFC5F7#01F3014B099D05DB
(1475151986.364695) can0 0CFFC3F7#1255401550504001
(1475151986.365016) can0 18FFC4F7#0000000000000000
(1475151986.365288) can0 0CFFCAF7#00009551000005D1
(1475151986.433575) can0 00FFAB41#0100000000000001
(1475151986.437784) can0 0CFFAC41#0000000000000000
(1475151986.441970) can0 0CFFAE41#0820025800000000
(1475151986.461797) can0 1CFFC0F7#0000000002580000
(1475151986.462137) can0 18FFD1F7#04B104B104B10000
(1475151986.462474) can0 18FFD0F7#006D006D006D0000
(1475151986.462753) can0 18FFC9F7#0820025800000000
(1475151986.463068) can0 1CFFC6F7#FA4000000026002B
(1475151986.463377) can0 1CFFC7F7#004F0190FFDB0000
(1475151986.463719) can0 0CFFC2F7#0820006B02580000
(1475151986.464101) can0 0CFFC8F7#00000000010F000F
(1475151986.464368) can0 18FFCBF7#0104FCA603AD0000
(1475151986.464369) can0 1CFFC5F7#01F3014B099D05DD
(1475151986.464722) can0 0CFFC3F7#1255401550504001
(1475151986.464971) can0 18FFC4F7#0000000000000000
(1475151986.465275) can0 0CFFCAF7#00009560000005D2
(1475151986.533352) can0 00FFAB41#0100000000000001
(1475151986.537550) can0 0CFFAC41#0000000000000000
(1475151986.541616) can0 0CFFAE41#0820025800000000
(1475151986.561881) can0 1CFFC0F7#0000000002580000
(1475151986.562123) can0 18FFD1F7#04B104B104B10000
(1475151986.562371) can0 18FFD0F7#006D006D006D0000
(1475151986.562674) can0 18FFC9F7#0820025800000000
(1475151986.562912) can0 1CFFC6F7#FA3F000000280033
(1475151986.563234) can0 1CFFC7F7#01750190FF4E0000
(1475151986.563515) can0 0CFFC2F7#0820006B02580000
(1475151986.563772) can0 0CFFC8F7#00000000010F000F
(1475151986.564138) can0 18FFCBF7#0104FCA604C90000
(1475151986.564415) can0 1CFFC5F7#01F3014B099D05DB
(1475151986.564706) can0 0CFFC3F7#1255401550504001
(1475151986.564950) can0 18FFC4F7#0000000000000000
(1475151986.565213) can0 0CFFCAF7#0000956C000005D1
(1475151986.637004) can0 00FFAB41#0100000000000001
(1475151986.640967) can0 0CFFAC41#0000000000000000
(1475151986.645129) can0 0CFFAE41#0820025800000000
(1475151986.661857) can0 1CFFC0F7#0000000002580000
(1475151986.662102) can0 18FFD1F7#04B104B104B10000
(1475151986.662402) can0 18FFD0F7#006D006D006D0000
(1475151986.662691) can0 18FFC9F7#0820025800000000
(1475151986.662947) can0 1CFFC6F7#FA4200000029003A
(1475151986.663269) can0 1CFFC7F7#018D0190FF4A0000
(1475151986.663538) can0 0CFFC2F7#0820006B02580000
(1475151986.663821) can0 0CFFC8F7#00000000010F000F
(1475151986.664113) can0 18FFCBF7#0104FCA6055F0000
(1475151986.664408) can0 1CFFC5F7#01F3014B099D05DB
(1475151986.664718) can0 0CFFC3F7#1255401550504001
(1475151986.664975) can0 18FFC4F7#0000000000000000
(1475151986.665231) can0 0CFFCAF7#00009578000005D0
(1475151986.733554) can0 00FFAB41#0100000000000001
(1475151986.738104) can0 0CFFAC41#0000000000000000
(1475151986.742333) can0 0CFFAE41#0820025800000000
(1475151986.761769) can0 1CFFC0F7#0000000002580000
(1475151986.762115) can0 18FFD1F7#04B104B104B10000
(1475151986.762395) can0 18FFD0F7#006D006D006D0000
(1475151986.762712) can0 18FFC9F7#0820025800000000
(1475151986.762975) can0 1CFFC6F7#FA4300000029003D
(1475151986.763264) can0 1CFFC7F7#018F0190FF4A0000
(1475151986.763522) can0 0CFFC2F7#0820006B02580000
(1475151986.763815) can0 0CFFC8F7#00000000010F000F
(1475151986.764136) can0 18FFCBF7#0104FCA6057F0000
(1475151986.764414) can0 1CFFC5F7#01F3014B099D05DC
(1475151986.764692) can0 0CFFC3F7#1255401550504001
(1475151986.764991) can0 18FFC4F7#0000000000000000
(1475151986.765288) can0 0CFFCAF7#00009582000005CF
(1475151986.833253) can0 00FFAB41#0100000000000001
(1475151986.837649) can0 0CFFAC41#0000000000000000
(1475151986.841798) can0 0CFFAE41#0820025800000000
(1475151986.861867) can0 1CFFC0F7#0000000002580000
(1475151986.862122) can0 18FFD1F7#04B104B104B10000
(1475151986.862401) can0 18FFD0F7#006D006D006D0000
(1475151986.862686) can0 18FFC9F7#0820025800000000
(1475151986.862946) can0 1CFFC6F7#FA40000000280034
(1475151986.863279) can0 1CFFC7F7#00390190FFDA0000
(1475151986.863548) can0 0CFFC2F7#0820006B02580000
(1475151986.863821) can0 0CFFC8F7#00000000010F000F
(1475151986.864163) can0 18FFCBF7#0104FCA604410000
(1475151986.864472) can0 1CFFC5F7#01F3014B099D05DD
(1475151986.864695) can0 0CFFC3F7#1255401550504001
(1475151986.865035) can0 18FFC4F7#0000000000000000
(1475151986.865297) can0 0CFFCAF7#0000958B000005CF
(1475151986.932679) can0 00FFAB41#0100000000000001
(1475151986.937053) can0 0CFFAC41#0000000000000000
(1475151986.941580) can0 0CFFAE41#0820025800000000
(1475151986.961799) can0 1CFFC0F7#0000000002580000
(1475151986.962095) can0 18FFD1F7#04B104B104B10000
(1475151986.962388) can0 18FFD0F7#006D006D006D0000
(1475151986.962697) can0 18FFC9F7#0820025800000000
(1475151986.962940) can0 1CFFC6F7#FA4200000027002F
(1475151986.963211) can0 1CFFC7F7#004F0190FFDB0000
(1475151986.963514) can0 0CFFC2F7#0820006B02580000
(1475151986.963802) can0 0CFFC8F7#00000000010F000F
(1475151986.964097) can0 18FFCBF7#0104FCA603C90000
(1475151986.964366) can0 1CFFC5F7#01F3014B099E05DD
(1475151986.964691) can0 0CFFC3F7#1255401550504001
(1475151986.964952) can0 18FFC4F7#0000000000000000
(1475151986.965247) can0 0CFFCAF7#00009593000005CE
(1475151987.033542) can0 00FFAB41#0100000000000001
(1475151987.037634) can0 0CFFAC41#0000000000000000
(1475151987.041689) can0 0CFFAE41#0820025800000000
(1475151987.061792) can0 1CFFC0F7#0000000002580000
(1475151987.062055) can0 18FFD1F7#04B104B104B10000
(1475151987.062372) can0 18FFD0F7#006D006D006D0000
(1475151987.062665) can0 18FFC9F7#0820025800000000
(1475151987.062921) can0 1CFFC6F7#FA3F00000027002C
(1475151987.063271) can0 1CFFC7F7#004F0190FFDB0000
(1475151987.063535) can0 0CFFC2F7#0820006B02580000
(1475151987.063828) can0 0CFFC8F7#00000000010F000F
(1475151987.064096) can0 18FFCBF7#0104FCA603B00000
(1475151987.064363) can0 1CFFC5F7#01F3014B099E05DD
(1475151987.064643) can0 0CFFC3F7#1255401550504001
(1475151987.064940) can0 18FFC4F7#0000000000000000
(1475151987.065219) can0 0CFFCAF7#00009599000005CE
(1475151987.137624) can0 00FFAB41#0100000000000001
(1475151987.141610) can0 0CFFAC41#0000000000000000
(1475151987.146146) can0 0CFFAE41#0820025800000000
(1475151987.161777) can0 1CFFC0F7#0000000002580000
(1475151987.162065) can0 18FFD1F7#04B104B104B10000
(1475151987.162361) can0 18FFD0F7#006D006D006D0000
(1475151987.162670) can0 18FFC9F7#0820025800000000
(1475151987.162937) can0 1CFFC6F7#FA4000000027002F
(1475151987.163237) can0 1CFFC7F7#00570190FF940000
(1475151987.163504) can0 0CFFC2F7#0820006B02580000
(1475151987.163790) can0 0CFFC8F7#00000000010F000F
(1475151987.164061) can0 18FFCBF7#0104FCA604030000
(1475151987.164356) can0 1CFFC5F7#01F3014B099E05DB
(1475151987.164670) can0 0CFFC3F7#1255401550504001
(1475151987.164941) can0 18FFC4F7#0000000000000000
(1475151987.165186) can0 0CFFCAF7#000095A0000005CD
(1475151987.233099) can0 00FFAB41#0100000000000001
(1475151987.237140) can0 0CFFAC41#0000000000000000
(1475151987.241366) can0 0CFFAE41#0820025800000000
(1475151987.261759) can0 1CFFC0F7#0000000002580000
(1475151987.262058) can0 18FFD1F7#04B104B104B10000
(1475151987.262357) can0 18FFD0F7#006D006D006D0000
(1475151987.262676) can0 18FFC9F7#0820025800000000
(1475151987.262913) can0 1CFFC6F7#FA3F000000290038
(1475151987.263235) can0 1CFFC7F7#01940190FF4A0000
(1475151987.263523) can0 0CFFC2F7#0820006B02580000
(1475151987.263820) can0 0CFFC8F7#00000000010F000F
(1475151987.264070) can0 18FFCBF7#0104FCA605370000
(1475151987.264381) can0 1CFFC5F7#01F3014B099B05DB
(1475151987.264684) can0 0CFFC3F7#1255401550504001
(1475151987.264934) can0 18FFC4F7#0000000000000000
(1475151987.265242) can0 0CFFCAF7#000095A5000005CD
(1475151987.332669) can0 00FFAB41#0100000000000001
(1475151987.336977) can0 0CFFAC41#0000000000000000
(1475151987.341186) can0 0CFFAE41#0820025800000000
(1475151987.361848) can0 1CFFC0F7#0000000002580000
(1475151987.362090) can0 18FFD1F7#04B104B104B10000
(1475151987.362396) can0 18FFD0F7#006D006D006D0000
(1475151987.362709) can0 18FFC9F7#0820025800000000
(1475151987.362944) can0 1CFFC6F7#FA4300000029003C
(1475151987.363218) can0 1CFFC7F7#01900190FF4A0000
(1475151987.363514) can0 0CFFC2F7#0820006B02580000
(1475151987.363848) can0 0CFFC8F7#00000000010F000F
(1475151987.364080) can0 18FFCBF7#0104FCA605760000
(1475151987.364438) can0 1CFFC5F7#01F3014B099D05DD
(1475151987.364672) can0 0CFFC3F7#1255401550504001
(1475151987.365018) can0 18FFC4F7#0000000000000000
(1475151987.365215) can0 0CFFCAF7#000095AA000005CD
(1475151987.433162) can0 00FFAB41#0100000000000001
(1475151987.437343) can0 0CFFAC41#0000000000000000
(1475151987.441543) can0 0CFFAE41#0820025800000000
(1475151987.461821) can0 1CFFC0F7#0000000002580000
(1475151987.462083) can0 18FFD1F7#04B104B104B10000
(1475151987.462392) can0 18FFD0F7#006D006D006D0000
(1475151987.462696) can0 18FFC9F7#0820025800000000
(1475151987.462953) can0 1CFFC6F7#FA3F000000290038
(1475151987.463269) can0 1CFFC7F7#013C0190FFC10000
(1475151987.463516) can0 0CFFC2F7#0820006B02580000
(1475151987.463802) can0 0CFFC8F7#00000000010F000F
(1475151987.464129) can0 18FFCBF7#0104FCA604E70000
(1475151987.464361) can0 1CFFC5F7#01F3014B099D05DD
(1475151987.464696) can0 0CFFC3F7#1255401550504001
(1475151987.464960) can0 18FFC4F7#0000000000000000
(1475151987.465236) can0 0CFFCAF7#000095AE000005CD
(1475151987.533264) can0 00FFAB41#0100000000000001
(1475151987.537583) can0 0CFFAC41#0000000000000000
(1475151987.541659) can0 0CFFAE41#0820025800000000
(1475151987.561869) can0 1CFFC0F7#0000000002580000
(1475151987.562149) can0 18FFD1F7#04B104B104B10000
(1475151987.562389) can0 18FFD0F7#006D006D006D0000
(1475151987.562708) can0 18FFC9F7#0820025800000000
(1475151987.562932) can0 1CFFC6F7#FA40000000280031
(1475151987.563211) can0 1CFFC7F7#00530190FFDB0000
(1475151987.563518) can0 0CFFC2F7#0820006B02580000
(1475151987.563784) can0 0CFFC8F7#00000000010F000F
(1475151987.564085) can0 18FFCBF7#0104FCA603EB0000
(1475151987.564373) can0 1CFFC5F7#01F3014B099C05DC
(1475151987.564721) can0 0CFFC3F7#1255401550504001
(1475151987.564941) can0 18FFC4F7#0000000000000000
(1475151987.565256) can0 0CFFCAF7#000095B2000005CD
(1475151987.644066) can0 00FFAB41#0100000000000001
(1475151987.649582) can0 0CFFAC41#0000000000000000
(1475151987.660174) can0 0CFFAE41#0820025800000000
(1475151987.661941) can0 1CFFC0F7#0000000002580000
(1475151987.662199) can0 18FFD1F7#04B104B104B10000
(1475151987.662483) can0 18FFD0F7#006D006D006D0000
(1475151987.662800) can0 18FFC9F7#0820025800000000
(1475151987.663015) can0 1CFFC6F7#FA3D00000027002D
(1475151987.663321) can0 1CFFC7F7#004F0190FFDB0000
(1475151987.663595) can0 0CFFC2F7#0820006B02580000
(1475151987.663878) can0 0CFFC8F7#00000000010F000F
(1475151987.664179) can0 18FFCBF7#0104FCA603B80000
(1475151987.664469) can0 1CFFC5F7#01F3014B099D05DD
(1475151987.664751) can0 0CFFC3F7#1255401550504001
(1475151987.665034) can0 18FFC4F7#0000000000000000
(1475151987.665306) can0 0CFFCAF7#000095B6000005CE
(1475151987.733418) can0 00FFAB41#0100000000000001
(1475151987.737670) can0 0CFFAC41#0000000000000000
(1475151987.741903) can0 0CFFAE41#0820025800000000
(1475151987.761842) can0 1CFFC0F7#0000000002580000
(1475151987.762106) can0 18FFD1F7#04B104B104B10000
(1475151987.762371) can0 18FFD0F7#006D006D006D0000
(1475151987.762657) can0 18FFC9F7#0820025800000000
(1475151987.762925) can0 1CFFC6F7#FA4000000027002B
(1475151987.763226) can0 1CFFC7F7#004F0190FFDB0000
(1475151987.763531) can0 0CFFC2F7#0820006B02580000
(1475151987.763830) can0 0CFFC8F7#00000000010F000F
(1475151987.764081) can0 18FFCBF7#0104FCA603AD0000
(1475151987.764389) can0 1CFFC5F7#01F3014B099D05DB
(1475151987.764701) can0 0CFFC3F7#1255401550504001
(1475151987.764974) can0 18FFC4F7#0000000000000000
(1475151987.765219) can0 0CFFCAF7#000095B8000005CE
(1475151987.833798) can0 00FFAB41#0100000000000001
(1475151987.837938) can0 0CFFAC41#0000000000000000
(1475151987.842093) can0 0CFFAE41#0820025800000000
(1475151987.861843) can0 1CFFC0F7#0000000002580000
(1475151987.862089) can0 18FFD1F7#04B104B104B10000
(1475151987.862438) can0 18FFD0F7#006D006D006D0000
(1475151987.862684) can0 18FFC9F7#0820025800000000
(1475151987.862951) can0 1CFFC6F7#FA3D000000280034
(1475151987.863265) can0 1CFFC7F7#01830190FF4D0000
(1475151987.863570) can0 0CFFC2F7#0820006B02580000
(1475151987.863833) can0 0CFFC8F7#00000000010F000F
(1475151987.864106) can0 18FFCBF7#0104FCA604D60000
(1475151987.864386) can0 1CFFC5F7#01F3014B099C05DD
(1475151987.864655) can0 0CFFC3F7#1255401550504001
(1475151987.864929) can0 18FFC4F7#0000000000000000
(1475151987.865229) can0 0CFFCAF7#000095BB000005CD
(1475151987.933591) can0 00FFAB41#0100000000000001
(1475151987.937921) can0 0CFFAC41#0000000000000000
(1475151987.942068) can0 0CFFAE41#0820025800000000
(1475151987.961832) can0 1CFFC0F7#0000000002580000
(1475151987.962093) can0 18FFD1F7#04B104B104B10000
(1475151987.962378) can0 18FFD0F7#006D006D006D0000
(1475151987.962691) can0 18FFC9F7#0820025800000000
(1475151987.962950) can0 1CFFC6F7#FA4000000029003A
(1475151987.963265) can0 1CFFC7F7#018D0190FF4A0000
(1475151987.963509) can0 0CFFC2F7#0820006B02580000
(1475151987.963866) can0 0CFFC8F7#00000000010F000F
(1475151987.964083) can0 18FFCBF7#0104FCA605620000
(1475151987.964430) can0 1CFFC5F7#01F3014B099D05DC
(1475151987.964698) can0 0CFFC3F7#1255401550504001
(1475151987.964960) can0 18FFC4F7#0000000000000000
(1475151987.965262) can0 0CFFCAF7#000095BD000005CE
(1475151988.033394) can0 00FFAB41#0100000000000001
(1475151988.037531) can0 0CFFAC41#0000000000000000
(1475151988.041682) can0 0CFFAE41#0820025800000000
(1475151988.061801) can0 1CFFC0F7#0000000002580000
(1475151988.062086) can0 18FFD1F7#04B104B104B10000
(1475151988.062386) can0 18FFD0F7#006D006D006D0000
(1475151988.062667) can0 18FFC9F7#0820025800000000
(1475151988.062946) can0 1CFFC6F7#FA4200000029003E
